write to 0x36 ack data: 0xA2 0x01 0x76 0x32 
write to 0x36 ack data: 0xA2 0x02 0x46 0x51 
write to 0x36 ack data: 0x00 0x00 0x80 0x0E 0xFF 0xFF 0xFF 0xFF 0xFF 0xFF 0x56 0x31 0x2E 0x32 0xFF 0xFF 0xFF 0xFF 0x75 0xA2 0x04 0x53 0x89 0xFC 0x75 0x81 0x26 0x12 0x02 0x22 0x53 0xC0 0x9F 0x43 0xC0 0x20 0x75 0xD8 0x00 0x75 0xE8 0x00 0x75 0xF8 0x00 0x90 0x60 0x73 0xE0 0x54 0x1F 0xF5 0xA3 0x43 0xC0 0x40 0x75 0x8A 0x00 0x43 0x89 0x02 0x43 0x8D 0x80 0x75 0x6A 0x38 
write to 0x36 ack data: 0x00 0x40 0xF3 0x00 0x53 0x8D 0x7F 0x53 0x87 0xF7 0x75 0x86 0x00 0x75 0x84 0x00 0x75 0x86 0x00 0x75 0x84 0x00 0x90 0x60 0x79 0xE0 0xF5 0xA1 0x75 0xA2 0x04 0x43 0x8D 0x80 0x90 0x60 0x6F 0xE0 0xF5 0xF1 0x53 0x8D 0x7F 0x75 0xE6 0xFF 0x75 0xE5 0xFF 0x75 0xB2 0x00 0x75 0xD4 0x10 0x75 0xB1 0x00 0x90 0x42 0x29 0xE0 0xF5 0x8B 0x43 0xED 0xFC 0x7C 
write to 0x36 ack data: 0x00 0x80 0x40 0x53 0xED 0xBF 0x75 0x80 0x00 0x75 0x88 0x00 0x75 0xBD 0x00 0x53 0xB6 0x80 0x75 0x98 0x00 0x75 0xA0 0x00 0x12 0x02 0xFF 0xEF 0x64 0xFF 0x70 0x02 0x01 0x10 0xE4 0x90 0x08 0x00 0x73 0x90 0x1F 0xFD 0xE0 0x64 0x78 0x70 0x27 0xA3 0xE0 0x64 0x78 0x70 0x21 0xA3 0xE0 0x64 0x78 0x70 0x1B 0x90 0x1F 0xC4 0xE0 0xFF 0x90 0x1F 0xAE 0x0D 
write to 0x36 ack data: 0x00 0xC0 0xC2 0xE0 0xB5 0x07 0x0F 0x90 0x1F 0xC5 0xE0 0xFF 0x90 0x1F 0xC3 0xE0 0xB5 0x07 0x03 0x7F 0x01 0x22 0x90 0x1F 0xFD 0xE0 0x64 0xAB 0x60 0x03 0x02 0x01 0xD5 0xA3 0xE0 0x64 0xCD 0x60 0x03 0x02 0x01 0xD5 0xA3 0xE0 0x64 0xEF 0x60 0x03 0x02 0x01 0xD5 0x90 0x1F 0xC4 0xE0 0xFF 0x90 0x1F 0xC2 0xE0 0xB5 0x07 0x0F 0x90 0x1F 0xC5 0xE8 0x2F 
write to 0x36 ack data: 0x01 0x00 0xE0 0xFF 0x90 0x1F 0xC3 0xE0 0xB5 0x07 0x03 0x7F 0x01 0x22 0x90 0x1F 0xC4 0xE0 0xB4 0xFF 0x05 0xA3 0xE0 0xF4 0x60 0x03 0x7F 0x00 0x22 0x90 0x1F 0xC0 0xE0 0xFE 0xA3 0xE0 0xFD 0xED 0xFF 0x4E 0x60 0x06 0xC3 0xEE 0x94 0x18 0x40 0x03 0x7F 0x00 0x22 0x12 0x07 0x59 0x7D 0x00 0x7C 0x08 0xE4 0x2F 0xFB 0xEE 0x34 0x08 0xFA 0xC3 0x0A 0x2F 
write to 0x36 ack data: 0x01 0x40 0xED 0x9B 0xEC 0x9A 0x50 0x1D 0x8D 0x82 0x8C 0x83 0xE0 0xF5 0xAD 0xED 0x24 0x01 0xFB 0xE4 0x3C 0x8B 0x82 0xF5 0x83 0xE0 0xF5 0xAC 0x74 0x02 0x2D 0xFD 0xE4 0x3C 0xFC 0x80 0xD5 0x90 0x1F 0xC0 0xE0 0x78 0x80 0xF6 0xA3 0xE0 0x08 0xF6 0xA3 0xE0 0x08 0xF6 0xA3 0xE0 0x08 0xF6 0x08 0xA6 0xAC 0x08 0xA6 0xAD 0x90 0x1F 0xFD 0xE0 0xA2 0xC5 
write to 0x36 ack data: 0x01 0x80 0x78 0xBD 0xF6 0xA3 0xE0 0x08 0xF6 0xA3 0xE0 0x08 0xF6 0xE4 0xFD 0x7F 0x80 0x7E 0x1F 0x12 0x07 0x2C 0x7F 0x06 0x74 0x80 0x2F 0xF8 0x76 0xFF 0x0F 0xBF 0x3D 0xF6 0x7F 0xC0 0x7E 0x1F 0x12 0x07 0x43 0xE4 0xFF 0xEF 0x24 0xC0 0xFB 0xE4 0x34 0x1F 0x8B 0x82 0xF5 0x83 0xE0 0xFE 0x74 0x80 0x2F 0xF8 0xE6 0xFC 0xEE 0xB5 0x04 0x04 0x89 0x65 
write to 0x36 ack data: 0x01 0xC0 0x0F 0xBF 0x40 0xE5 0xEF 0x64 0x40 0x60 0x04 0x0D 0xBD 0x03 0xC0 0xED 0x64 0x03 0x60 0x03 0x7F 0x01 0x22 0x7F 0x00 0x22 0x75 0xF0 0x01 0x02 0x02 0xD2 0x75 0xF0 0x03 0x12 0x02 0xD2 0xE5 0xA1 0x90 0x60 0x79 0xF0 0x12 0x02 0xE5 0x22 0x75 0xF0 0x04 0x12 0x02 0xD2 0x43 0x8D 0x80 0xE5 0xF1 0x53 0x8D 0x7F 0x90 0x60 0x6F 0xF0 0xCE 0x7A 
write to 0x36 ack data: 0x02 0x00 0x12 0x02 0xE5 0x22 0x75 0xF0 0x05 0x02 0x02 0xD2 0x75 0xF0 0x06 0x02 0x02 0xD2 0x75 0xF0 0x07 0x02 0x02 0xD2 0x75 0xF0 0x08 0x02 0x02 0xD2 0x75 0xF0 0x09 0x02 0x02 0xD2 0x75 0xF0 0x0C 0x02 0x02 0xD2 0x75 0xF0 0x0D 0x02 0x02 0xD2 0x75 0xF0 0x0E 0x02 0x02 0xD2 0x75 0xF0 0x10 0x02 0x02 0xD2 0x75 0xF0 0x11 0x02 0x02 0xD2 0x7C 0x83 
write to 0x36 ack data: 0x02 0x40 0x75 0xF0 0x15 0x12 0x02 0xD2 0xE5 0xA3 0x90 0x60 0x73 0xF0 0x12 0x02 0xE5 0x22 0x75 0xF0 0x16 0x80 0x7D 0x75 0xF0 0x17 0x80 0x78 0x75 0xF0 0x18 0x80 0x73 0x75 0xF0 0x19 0x80 0x6E 0x8F 0x08 0x8D 0x09 0x8A 0x0E 0x8B 0x0F 0x75 0xF0 0x1B 0x80 0x61 0x75 0xF0 0x1C 0x80 0x5C 0x75 0xF0 0x23 0x80 0x57 0x75 0xF0 0x28 0x80 0x52 0x4C 0x9E 
write to 0x36 ack data: 0x02 0x80 0x75 0xF0 0x2C 0x80 0x4D 0x75 0xF0 0x2D 0x12 0x02 0xD2 0x43 0x8D 0x80 0xE5 0xF1 0x53 0x8D 0x7F 0x90 0x60 0x6F 0xF0 0x12 0x02 0xE5 0x22 0x75 0xF0 0x30 0x80 0x32 0x75 0xF0 0x32 0x80 0x2D 0x75 0xF0 0x33 0x80 0x28 0x75 0xF0 0x34 0x80 0x23 0x75 0xF0 0x35 0x80 0x1E 0x75 0xF0 0x36 0x80 0x19 0x75 0xF0 0x37 0x80 0x14 0x75 0xF0 0x3C 0x9D 
write to 0x36 ack data: 0x02 0xC0 0x38 0x80 0x0F 0x75 0xF0 0x39 0x80 0x0A 0x75 0xF0 0x3A 0x80 0x05 0x75 0xF0 0x3F 0x80 0x00 0x02 0x20 0x00 0x75 0xA0 0x00 0x75 0x98 0x00 0x43 0x9B 0x80 0x43 0x9B 0x04 0x43 0x9B 0x18 0x22 0x75 0xE6 0xFF 0x75 0xE5 0xFF 0x22 0x53 0xB2 0xFD 0x43 0xD4 0x10 0x43 0x8F 0x01 0x80 0xFE 0x12 0x02 0x76 0x7D 0x18 0x7C 0x00 0x22 0x90 0xC3 0x73 
write to 0x36 ack data: 0x03 0x00 0x60 0x7B 0xE0 0xB4 0xA5 0x1A 0x90 0x60 0x7C 0xE0 0xB4 0xCB 0x13 0x90 0x60 0x7D 0xE0 0xB4 0xBC 0x0C 0x90 0x60 0x7E 0xE0 0xB4 0x5A 0x05 0x75 0x1C 0x01 0x80 0x03 0xE4 0xF5 0x1C 0xE5 0x1C 0x60 0x17 0xE4 0x90 0x60 0x7C 0xF0 0x90 0x60 0x7B 0xF0 0x90 0x60 0x7E 0xF0 0x90 0x60 0x7D 0xF0 0x53 0x89 0x03 0x12 0x05 0xD3 0x12 0x00 0xBA 0x9C 
write to 0x36 ack data: 0x03 0x40 0xA5 0xEF 0x60 0x50 0x12 0x02 0x34 0x12 0x02 0xB4 0x8E 0x18 0x8F 0x19 0x90 0x60 0x7B 0xE0 0xB4 0xA5 0x16 0x90 0x60 0x7C 0xE0 0xB4 0xA5 0x0F 0x90 0x60 0x7D 0xE0 0xB4 0x5A 0x08 0x90 0x60 0x7E 0xE0 0x64 0x5A 0x60 0x05 0x75 0x1C 0x01 0x80 0x1E 0xE4 0x90 0x60 0x7C 0xF0 0x90 0x60 0x7B 0xF0 0x90 0x60 0x7E 0xF0 0x90 0x60 0x7D 0xF4 0x46 
write to 0x36 ack data: 0x03 0x80 0xF0 0xE5 0x89 0x30 0xE2 0x05 0x75 0x1C 0x02 0x80 0x03 0xE4 0xF5 0x1C 0x53 0x89 0x03 0xAF 0x1C 0x22 0x53 0x89 0x03 0x7F 0xC0 0x7E 0x12 0x12 0x06 0x9E 0x7F 0x2C 0x7E 0x01 0x12 0x06 0x65 0x75 0xA2 0x04 0x90 0x60 0x79 0xE0 0xF5 0xA1 0x74 0x5A 0xFB 0xFA 0x7D 0x02 0x7F 0x80 0x12 0x02 0x64 0xEF 0xF4 0x60 0x0E 0x78 0x82 0xE6 0x81 0xDD 
write to 0x36 ack data: 0x03 0xC0 0xB4 0x81 0x08 0x08 0xE6 0xB4 0x7E 0x03 0x12 0x02 0x9B 0xE4 0xFB 0xFA 0xFD 0xFC 0x7F 0x24 0x7E 0x07 0x12 0x07 0x94 0x7F 0xFF 0x22 0x8F 0x1E 0x7B 0x00 0x7A 0xF0 0xE4 0xFD 0xFC 0xFF 0x12 0x07 0x02 0x74 0x4D 0xFC 0xAD 0x1E 0x7F 0x01 0x12 0x07 0x02 0x90 0x42 0x24 0xE0 0xFD 0xE5 0x25 0xFC 0x7F 0x02 0x12 0x07 0x02 0xA3 0xE0 0x65 0x0E 
write to 0x36 ack data: 0x04 0x00 0xFE 0xA3 0xE0 0xFD 0xEE 0xFC 0x7F 0x03 0x12 0x07 0x02 0xA3 0xE0 0xAD 0x26 0xFC 0x7F 0x04 0x12 0x07 0x02 0x12 0x07 0x59 0x75 0xAD 0x4D 0x85 0x1E 0xAC 0xE5 0x25 0xF5 0xAD 0x90 0x42 0x24 0xE0 0xF5 0xAC 0xA3 0xE0 0xF5 0xAD 0xA3 0xE0 0xF5 0xAC 0xA3 0xE0 0xF5 0xAD 0xE5 0x26 0xF5 0xAC 0xAF 0xAC 0xEF 0xAD 0xAD 0xFC 0x7F 0x05 0x5D 0xED 
write to 0x36 ack data: 0x04 0x40 0x12 0x07 0x02 0x12 0x02 0xAA 0x8F 0x1E 0xE5 0x1E 0xB4 0x01 0x0B 0x75 0xC1 0x2A 0x75 0xC2 0x02 0x75 0x1E 0xC0 0x80 0x19 0xE5 0x1E 0xB4 0x02 0x0B 0x75 0xC1 0xD7 0x75 0xC2 0x03 0x75 0x1E 0xED 0x80 0x09 0x75 0xC1 0x1E 0x75 0xC2 0x05 0x75 0x1E 0xB1 0xE4 0xF5 0xC3 0xF5 0xC4 0x75 0x22 0x06 0x75 0x23 0x80 0x85 0x1E 0x24 0x7B 0x08 0xAE 
write to 0x36 ack data: 0x04 0x80 0x08 0x7D 0x06 0x7F 0x0C 0x02 0x07 0x82 0xC0 0x00 0xC0 0x89 0xE5 0x07 0xF8 0x85 0x05 0xCF 0x75 0x89 0x00 0x00 0xC2 0xC6 0xC2 0xC5 0x75 0xCE 0x00 0x75 0xCD 0x00 0xD2 0xD9 0xD2 0xD8 0x12 0x02 0xAF 0x12 0x02 0x3A 0x75 0xA5 0x00 0x75 0xA4 0x64 0xD2 0xE8 0x75 0x98 0x00 0x75 0xA0 0x00 0x43 0x87 0x01 0x00 0x00 0x00 0xE5 0x98 0x75 0xC3 
write to 0x36 ack data: 0x04 0xC0 0x54 0x20 0x60 0x43 0xE5 0xCD 0x65 0x03 0x70 0xE8 0xE5 0xCE 0x65 0x02 0x70 0xE2 0xA6 0x02 0x08 0xA6 0x03 0x08 0x75 0x07 0x01 0xD5 0x05 0x02 0x80 0x2C 0xC2 0xE8 0x75 0xA5 0x00 0x75 0xA4 0x2D 0xD2 0xE8 0x75 0x98 0x00 0x75 0xA0 0x00 0x43 0x87 0x01 0x00 0x00 0x00 0xE5 0x98 0x54 0x20 0x60 0x0D 0xA6 0xCE 0x08 0xA6 0xCD 0x08 0xB4 0x92 
write to 0x36 ack data: 0x05 0x00 0x05 0x07 0xD5 0x05 0xE3 0x80 0x03 0x75 0x07 0xFF 0xC2 0xE8 0xC2 0xD8 0xC2 0xD9 0x75 0xA4 0x00 0x75 0xA5 0x00 0x75 0xCD 0x00 0x75 0xCE 0x00 0xD0 0xE0 0x64 0x02 0x70 0x03 0x12 0x02 0x16 0x12 0x02 0x34 0x12 0x02 0xD5 0xD0 0x00 0x22 0x12 0x06 0xD4 0xEF 0x70 0x05 0x7F 0x99 0x02 0x05 0xC5 0xE4 0xB5 0x26 0x17 0xE5 0x25 0xB4 0x1A 0xFC 
write to 0x36 ack data: 0x05 0x40 0x08 0x12 0x7F 0x80 0x7E 0x1F 0x12 0x07 0x2C 0x90 0x1F 0xBF 0xE0 0xF4 0x60 0x04 0x7F 0x9B 0x80 0x71 0xE5 0x26 0x54 0x7F 0x70 0x07 0xAF 0x26 0xAE 0x25 0x12 0x07 0x2C 0xE4 0xFD 0xAF 0x26 0xAE 0x25 0x12 0x07 0x43 0xE4 0xFF 0xEF 0x7A 0x00 0x25 0x26 0xFB 0xEA 0x35 0x25 0x8B 0x82 0xF5 0x83 0xE0 0xFE 0x74 0x80 0x2F 0xF8 0xE6 0xE6 0xC4 
write to 0x36 ack data: 0x05 0x80 0xFC 0xEE 0xB5 0x04 0x04 0x0F 0xBF 0x40 0xE3 0xEF 0x64 0x40 0x60 0x04 0x0D 0xBD 0x03 0xD1 0xBD 0x03 0x18 0xE5 0x26 0x54 0x7F 0x64 0x40 0x70 0x0C 0x74 0xC0 0x25 0x26 0xF5 0x26 0x74 0xFF 0x35 0x25 0xF5 0x25 0x7F 0x9B 0x80 0x18 0x74 0x40 0x25 0x26 0xF5 0x26 0xE4 0x35 0x25 0xF5 0x25 0xC3 0x94 0x20 0x40 0x0E 0x12 0x00 0xA5 0x08 0x8B 
write to 0x36 ack data: 0x05 0xC0 0xEF 0x70 0x08 0x7F 0x9A 0x12 0x03 0xDA 0x7F 0x00 0x22 0x7F 0x98 0x12 0x03 0xDA 0x7F 0x01 0x22 0xE4 0xF5 0x25 0xF5 0x26 0x7F 0x98 0x12 0x03 0xDA 0x12 0x07 0xA4 0x12 0x07 0xA1 0x75 0x25 0x08 0x75 0x26 0x00 0xE4 0xF5 0x1D 0x12 0x02 0xE5 0x75 0xA2 0x04 0x90 0x60 0x79 0xE0 0xF5 0xA1 0x7B 0x7E 0x7A 0x81 0x7D 0x23 0x7F 0x7E 0xF3 0x27 
write to 0x36 ack data: 0x06 0x00 0x12 0x04 0x88 0xEF 0xF4 0x60 0x3E 0x78 0xC0 0xE6 0x65 0x26 0x70 0x01 0xE4 0x70 0x16 0xE5 0x25 0xFF 0x08 0xE6 0xB5 0x07 0x0E 0x12 0x05 0x2E 0xEF 0x60 0x26 0xC3 0xE5 0x25 0x94 0x20 0x40 0x28 0x22 0x78 0xC0 0xE6 0xB4 0x80 0x13 0x08 0xE6 0xB4 0x1F 0x0E 0x75 0x25 0x1F 0x75 0x26 0x80 0x12 0x05 0x2E 0xEF 0x60 0x07 0x80 0x0E 0x29 0xE7 
write to 0x36 ack data: 0x06 0x40 0x7F 0x9A 0x12 0x03 0xDA 0x05 0x1D 0xE5 0x1D 0xC3 0x94 0x1E 0x40 0x9E 0xE5 0x1D 0x64 0x1E 0x70 0x95 0x12 0x02 0xE5 0xE4 0x90 0x60 0x02 0xF0 0xA3 0xF0 0x90 0x60 0x00 0xF0 0xA3 0xF0 0x22 0x90 0x60 0x02 0xE0 0xFC 0xA3 0xE0 0xFD 0xD3 0x9F 0xEC 0x9E 0x40 0x0A 0x90 0x60 0x02 0xEE 0xF0 0xA3 0xEF 0xF0 0x80 0x12 0xED 0x4C 0x70 0x56 0xBE 
write to 0x36 ack data: 0x06 0x80 0x0E 0x90 0x60 0x02 0xEE 0xF0 0xA3 0xEF 0xF0 0x12 0x07 0xA4 0x12 0x07 0xA1 0x90 0x60 0x03 0xE0 0x24 0xFF 0xF0 0x90 0x60 0x02 0xE0 0x34 0xFF 0xF0 0x22 0x90 0x60 0x00 0xE0 0xFC 0xA3 0xE0 0xFD 0xD3 0x9F 0xEC 0x9E 0x40 0x0A 0x90 0x60 0x00 0xEE 0xF0 0xA3 0xEF 0xF0 0x80 0x0F 0xED 0x4C 0x70 0x0B 0x90 0x60 0x00 0xEE 0xF0 0xA3 0x9B 0xD5 
write to 0x36 ack data: 0x06 0xC0 0xEF 0xF0 0x12 0x07 0x6F 0x90 0x60 0x01 0xE0 0x24 0xFF 0xF0 0x90 0x60 0x00 0xE0 0x34 0xFF 0xF0 0x22 0x12 0x07 0x59 0xE4 0xFF 0xEF 0xC3 0x94 0x42 0x50 0x12 0x74 0x80 0x2F 0xF8 0xE6 0xF5 0xAD 0x74 0x81 0x2F 0xF8 0xE6 0xF5 0xAC 0x0F 0x0F 0x80 0xE8 0x78 0xC2 0xE6 0xB5 0xAC 0x08 0x08 0xE6 0xB5 0xAD 0x03 0x7F 0x01 0x22 0x7F 0x90 0xBC 
write to 0x36 ack data: 0x07 0x00 0x00 0x22 0xA9 0x07 0xE9 0x25 0xE0 0x25 0xE0 0xF9 0xAF 0x04 0x24 0x80 0xF8 0xA6 0x07 0xAF 0x05 0x74 0x81 0x29 0xF8 0xA6 0x07 0xAF 0x03 0x74 0x82 0x29 0xF8 0xA6 0x07 0xAF 0x02 0xAE 0x01 0x74 0x83 0x2E 0xF8 0xA6 0x07 0x22 0x43 0x8F 0x80 0x90 0x70 0x00 0x74 0x55 0xF0 0x74 0xAA 0xF0 0x8F 0x82 0x8E 0x83 0x74 0xFF 0xF0 0x53 0x77 0x01 
write to 0x36 ack data: 0x07 0x40 0x8F 0x7F 0x22 0x43 0x8F 0x80 0x90 0x70 0x00 0x74 0x55 0xF0 0x74 0xAA 0xF0 0x8F 0x82 0x8E 0x83 0xE4 0xF0 0x53 0x8F 0x7F 0x22 0xE4 0xF5 0xAB 0xF5 0xAA 0x75 0xA9 0x0F 0xF5 0xAD 0xF5 0xAC 0x75 0xAB 0x08 0x75 0xAA 0x10 0x75 0xA9 0xFF 0x22 0x90 0x60 0x04 0xE0 0x60 0x03 0x02 0x02 0x85 0x12 0x01 0xEE 0x90 0x60 0x04 0x74 0x01 0x30 0xCB 
write to 0x36 ack data: 0x07 0x80 0xF0 0x22 0x8F 0x0B 0x85 0x24 0x0A 0x8D 0x09 0x8B 0x08 0x85 0x22 0x0D 0x85 0x23 0x0F 0x02 0x02 0x71 0xE5 0x19 0x64 0x90 0x70 0x04 0xFA 0xFB 0xFC 0xFD 0x02 0x02 0xA5 0x02 0x02 0x40 0x02 0x01 0xDE 0xFF 0xFF 0xFF 0xFF 0xFF 0xFF 0xFF 0xFF 0xFF 0xFF 0xFF 0xFF 0xFF 0xFF 0xFF 0xFF 0xFF 0xFF 0xFF 0xFF 0xFF 0xFF 0xFF 0xFF 0xFF 0x2D 0xB1 
write to 0x36 ack data: 0x07 0xC0 0xFF 0xFF 0xFF 0xFF 0xFF 0xFF 0xFF 0xFF 0xFF 0xFF 0xFF 0xFF 0xFF 0xFF 0xFF 0xFF 0xFF 0xFF 0xFF 0xFF 0xFF 0xFF 0xFF 0xFF 0xFF 0xFF 0xFF 0xFF 0xFF 0xFF 0xFF 0xFF 0xFF 0xFF 0xFF 0xFF 0xFF 0xFF 0xFF 0xFF 0xFF 0xFF 0xFF 0xFF 0xFF 0xFF 0xFF 0xFF 0xFF 0xFF 0xFF 0xFF 0xFF 0xFF 0xFF 0xFF 0xFF 0xFF 0xFF 0xFF 0xFF 0xFF 0xFF 0xFF 0x74 0xA4 
write to 0x36 ack data: 0x08 0x00 0x75 0x81 0x33 0x02 0x10 0xFF 0x00 0x7F 0x00 0x22 0x75 0xF0 0x01 0x02 0x09 0x04 0x75 0xF0 0x03 0x12 0x09 0x04 0xE5 0xA1 0x90 0x60 0x79 0xF0 0x12 0x09 0x17 0x22 0x75 0xF0 0x04 0x12 0x09 0x04 0x43 0x8D 0x80 0xE5 0xF1 0x53 0x8D 0x7F 0x90 0x60 0x6F 0xF0 0x12 0x09 0x17 0x22 0x75 0xF0 0x05 0x02 0x09 0x04 0x75 0xF0 0x06 0x02 0x2D 0x6D 
write to 0x36 ack data: 0x08 0x40 0x09 0x04 0x75 0xF0 0x07 0x02 0x09 0x04 0x75 0xF0 0x08 0x02 0x09 0x04 0x75 0xF0 0x09 0x02 0x09 0x04 0x75 0xF0 0x0C 0x02 0x09 0x04 0x75 0xF0 0x0D 0x02 0x09 0x04 0x75 0xF0 0x0E 0x02 0x09 0x04 0x75 0xF0 0x10 0x02 0x09 0x04 0x75 0xF0 0x11 0x02 0x09 0x04 0x75 0xF0 0x15 0x12 0x09 0x04 0xE5 0xA3 0x90 0x60 0x73 0xF0 0x12 0x09 0x9D 0x2B 
write to 0x36 ack data: 0x08 0x80 0x17 0x22 0x75 0xF0 0x16 0x80 0x7D 0x75 0xF0 0x17 0x80 0x78 0x75 0xF0 0x18 0x80 0x73 0x75 0xF0 0x19 0x80 0x6E 0x8F 0x08 0x8D 0x09 0x8A 0x0E 0x8B 0x0F 0x75 0xF0 0x1B 0x80 0x61 0x75 0xF0 0x1C 0x80 0x5C 0x75 0xF0 0x23 0x80 0x57 0x75 0xF0 0x28 0x80 0x52 0x75 0xF0 0x2C 0x80 0x4D 0x75 0xF0 0x2D 0x12 0x09 0x04 0x43 0x8D 0x80 0x3E 0xE0 
write to 0x36 ack data: 0x08 0xC0 0xE5 0xF1 0x53 0x8D 0x7F 0x90 0x60 0x6F 0xF0 0x12 0x09 0x17 0x22 0x75 0xF0 0x30 0x80 0x32 0x75 0xF0 0x32 0x80 0x2D 0x75 0xF0 0x33 0x80 0x28 0x75 0xF0 0x34 0x80 0x23 0x75 0xF0 0x35 0x80 0x1E 0x75 0xF0 0x36 0x80 0x19 0x75 0xF0 0x37 0x80 0x14 0x75 0xF0 0x38 0x80 0x0F 0x75 0xF0 0x39 0x80 0x0A 0x75 0xF0 0x3A 0x80 0x05 0x75 0x91 0x97 
write to 0x36 ack data: 0x09 0x00 0xF0 0x3F 0x80 0x00 0x02 0x20 0x00 0x75 0xA0 0x00 0x75 0x98 0x00 0x43 0x9B 0x80 0x43 0x9B 0x04 0x43 0x9B 0x18 0x22 0x75 0xE6 0xFF 0x75 0xE5 0xFF 0x22 0x53 0xB2 0xFD 0x43 0xD4 0x10 0x43 0x8F 0x01 0x80 0xFE 0x12 0x08 0xA8 0x7D 0x18 0x7C 0x00 0x22 0xD2 0xC1 0x30 0xA2 0x03 0x20 0xA1 0x0D 0xE5 0x9F 0x20 0xE7 0x79 0xE5 0x97 0x91 0x8D 
write to 0x36 ack data: 0x09 0x40 0x30 0xE7 0xF0 0x02 0x0A 0x07 0xE4 0xF5 0xA0 0xF5 0x98 0xF5 0x9F 0xF5 0x9E 0xF5 0x97 0xF5 0x96 0xF5 0x33 0xE5 0x33 0x70 0x25 0x20 0xA2 0x08 0xE5 0x9F 0x30 0xE7 0xF8 0x02 0x0A 0x07 0xAF 0x9F 0xEF 0xFF 0xAD 0x9E 0xED 0x90 0x60 0x0F 0xCF 0xF0 0xA3 0xEF 0xF0 0xE4 0xF5 0xA0 0xF5 0x98 0xF5 0x9F 0xF5 0x9E 0x80 0x0F 0x90 0x60 0x71 0xC8 
write to 0x36 ack data: 0x09 0x80 0x11 0xE0 0xFF 0xA3 0xE0 0x90 0x60 0x0F 0xCF 0xF0 0xA3 0xEF 0xF0 0x20 0xA1 0x07 0xE5 0x97 0x30 0xE7 0xF8 0x80 0x70 0xAF 0x97 0xEF 0xFF 0xAD 0x96 0xED 0x90 0x60 0x0D 0xCF 0xF0 0xA3 0xEF 0xF0 0xE4 0xF5 0xA0 0xF5 0x98 0xF5 0x97 0xF5 0x96 0x20 0xA2 0x07 0xE5 0x9F 0x30 0xE7 0xF8 0x80 0x4E 0x12 0x0D 0x33 0xAF 0x9F 0xEF 0xFF 0x90 0xF4 
write to 0x36 ack data: 0x09 0xC0 0xAD 0x9E 0xED 0x90 0x60 0x11 0xCF 0xF0 0xA3 0xEF 0xF0 0xE4 0xF5 0xA0 0xF5 0x98 0xF5 0x9F 0xF5 0x9E 0x12 0x0D 0x2F 0xE5 0x33 0xD3 0x94 0x00 0x40 0x2D 0x90 0x60 0x13 0xE0 0xFF 0xE5 0xE7 0xD3 0x9F 0x40 0x0A 0xE5 0xE7 0x9F 0xD3 0x94 0x01 0x40 0x1A 0x80 0x14 0x90 0x60 0x13 0xE0 0xFF 0xE5 0xE7 0xC3 0x9F 0x50 0x0D 0xC3 0xEF 0x65 0xA9 
write to 0x36 ack data: 0x0A 0x00 0x95 0xE7 0xD3 0x94 0x01 0x40 0x04 0xE4 0xFE 0xFF 0x22 0x90 0x60 0x13 0xE5 0xE7 0xF0 0x05 0x33 0xE5 0x33 0xC3 0x94 0x03 0x50 0x03 0x02 0x09 0x55 0x90 0x60 0x0F 0xE0 0xFE 0xA3 0xE0 0xFF 0x7C 0x00 0x7D 0x02 0x12 0x0B 0x00 0x90 0x60 0x0E 0xE0 0x2F 0xFB 0x90 0x60 0x0D 0xE0 0x3E 0xFA 0x90 0x60 0x11 0xE0 0xFE 0xA3 0xE0 0xFF 0x1A 0x1E 
write to 0x36 ack data: 0x0A 0x40 0x7C 0x00 0x7D 0x02 0x12 0x0B 0x00 0xEF 0x2B 0xF5 0x1B 0xEE 0x3A 0xF5 0x1A 0xFE 0xAF 0x1B 0x22 0xBB 0x01 0x06 0x89 0x82 0x8A 0x83 0xE0 0x22 0x50 0x02 0xE7 0x22 0xBB 0xFE 0x02 0xE3 0x22 0x89 0x82 0x8A 0x83 0xE4 0x93 0x22 0xBB 0x01 0x0C 0xE5 0x82 0x29 0xF5 0x82 0xE5 0x83 0x3A 0xF5 0x83 0xE0 0x22 0x50 0x06 0xE9 0x25 0x82 0xF0 0x72 
write to 0x36 ack data: 0x0A 0x80 0xF8 0xE6 0x22 0xBB 0xFE 0x06 0xE9 0x25 0x82 0xF8 0xE2 0x22 0xE5 0x82 0x29 0xF5 0x82 0xE5 0x83 0x3A 0xF5 0x83 0xE4 0x93 0x22 0xBB 0x01 0x06 0x89 0x82 0x8A 0x83 0xF0 0x22 0x50 0x02 0xF7 0x22 0xBB 0xFE 0x01 0xF3 0x22 0xBC 0x00 0x0B 0xBE 0x00 0x29 0xEF 0x8D 0xF0 0x84 0xFF 0xAD 0xF0 0x22 0xE4 0xCC 0xF8 0x75 0xF0 0x08 0xEF 0x38 0x81 
write to 0x36 ack data: 0x0A 0xC0 0x2F 0xFF 0xEE 0x33 0xFE 0xEC 0x33 0xFC 0xEE 0x9D 0xEC 0x98 0x40 0x05 0xFC 0xEE 0x9D 0xFE 0x0F 0xD5 0xF0 0xE9 0xE4 0xCE 0xFD 0x22 0xED 0xF8 0xF5 0xF0 0xEE 0x84 0x20 0xD2 0x1C 0xFE 0xAD 0xF0 0x75 0xF0 0x08 0xEF 0x2F 0xFF 0xED 0x33 0xFD 0x40 0x07 0x98 0x50 0x06 0xD5 0xF0 0xF2 0x22 0xC3 0x98 0xFD 0x0F 0xD5 0xF0 0xEA 0x22 0x90 0x3A 
write to 0x36 ack data: 0x0B 0x00 0xC2 0xD5 0xEC 0x30 0xE7 0x09 0xB2 0xD5 0xE4 0xC3 0x9D 0xFD 0xE4 0x9C 0xFC 0xEE 0x30 0xE7 0x15 0xB2 0xD5 0xE4 0xC3 0x9F 0xFF 0xE4 0x9E 0xFE 0x12 0x0A 0xAB 0xC3 0xE4 0x9D 0xFD 0xE4 0x9C 0xFC 0x80 0x03 0x12 0x0A 0xAB 0x30 0xD5 0x07 0xC3 0xE4 0x9F 0xFF 0xE4 0x9E 0xFE 0x22 0xEC 0x8E 0xF0 0xA4 0xCC 0xC5 0xF0 0xCC 0xCD 0xF8 0xDC 0xEA 
write to 0x36 ack data: 0x0B 0x40 0xEF 0xA4 0xCE 0xC5 0xF0 0x2D 0xFD 0xE4 0x3C 0xFC 0xE8 0xA4 0x2E 0xC8 0xC5 0xF0 0x3D 0xFD 0xE4 0x3C 0xFC 0xEF 0xA4 0xFF 0xE5 0xF0 0x28 0xFE 0xE4 0x3D 0xFD 0xE4 0x3C 0xFC 0x22 0x7B 0x40 0x7D 0x40 0x7F 0x80 0x7E 0x3F 0x12 0x12 0x15 0x7B 0x40 0x7D 0xC0 0x7F 0xC0 0x7E 0x3F 0x12 0x12 0x15 0xE4 0xF5 0x1C 0x7F 0x80 0x7E 0x3F 0x50 0x97 
write to 0x36 ack data: 0x0B 0x80 0x12 0x12 0x21 0xE4 0xFF 0x74 0x40 0x2F 0xF8 0xE6 0xFE 0x74 0x80 0x2F 0xF8 0xA6 0x06 0x0F 0xBF 0x40 0xF0 0x7F 0x80 0x7E 0x3F 0x12 0x12 0x1B 0xE4 0xFF 0xEF 0xFD 0x33 0x95 0xE0 0xFC 0xED 0x24 0x80 0xFD 0xEC 0x34 0x3F 0x8D 0x82 0xF5 0x83 0xE0 0xFE 0x74 0x80 0x2F 0xF8 0xE6 0xB5 0x06 0x04 0x0F 0xBF 0x40 0xE1 0xEF 0x64 0x40 0x1B 0x0E 
write to 0x36 ack data: 0x0B 0xC0 0x70 0x46 0xE4 0xFF 0x74 0xC0 0x2F 0xF8 0xE6 0xFE 0x74 0x80 0x2F 0xF8 0xA6 0x06 0x0F 0xBF 0x40 0xF0 0x78 0xBC 0xE4 0xF6 0x78 0xBF 0xF6 0x7F 0xC0 0x7E 0x3F 0x12 0x12 0x1B 0xE4 0xFF 0xEF 0xFD 0x33 0x95 0xE0 0xFC 0xED 0x24 0xC0 0xFD 0xEC 0x34 0x3F 0x8D 0x82 0xF5 0x83 0xE0 0xFE 0x74 0x80 0x2F 0xF8 0xE6 0xB5 0x06 0x04 0x0F 0xB4 0x18 
write to 0x36 ack data: 0x0C 0x00 0xBF 0x40 0xE1 0xEF 0x64 0x40 0x60 0x0E 0x05 0x1C 0xC3 0xE5 0x1C 0x64 0x80 0x94 0x83 0x50 0x03 0x02 0x0B 0x7C 0xE5 0x1C 0xB4 0x03 0x04 0x7F 0x01 0x80 0x02 0x7F 0x00 0x22 0x53 0x91 0xF9 0x53 0x92 0xF9 0x22 0x43 0x90 0x30 0x22 0xD2 0x94 0xD2 0x95 0xC2 0x94 0xC2 0x95 0x22 0xC2 0x94 0xD2 0x95 0xD2 0x94 0x22 0xC2 0x94 0xD2 0xCC 0xE8 
write to 0x36 ack data: 0x0C 0x40 0x95 0xC2 0x95 0xD2 0x94 0x22 0xD2 0x94 0xD2 0x95 0xC2 0x95 0x22 0xD2 0x94 0x43 0x91 0x02 0xD2 0x95 0x33 0xA2 0x91 0xC2 0x95 0x53 0x91 0xFD 0x33 0xFF 0x22 0xEF 0x33 0x92 0x94 0xD2 0x95 0xC2 0x95 0x33 0x92 0x94 0xD2 0x95 0xC2 0x95 0x33 0x92 0x94 0xD2 0x95 0xC2 0x95 0x33 0x92 0x94 0xD2 0x95 0xC2 0x95 0x33 0x92 0x94 0xD2 0xD7 0x4A 
write to 0x36 ack data: 0x0C 0x80 0x95 0xC2 0x95 0x33 0x92 0x94 0xD2 0x95 0xC2 0x95 0x33 0x92 0x94 0xD2 0x95 0xC2 0x95 0x33 0x92 0x94 0xD2 0x95 0xC2 0x95 0x22 0x43 0x91 0x02 0xD2 0x95 0x33 0xA2 0x91 0xC2 0x95 0xD2 0x95 0x33 0xA2 0x91 0xC2 0x95 0xD2 0x95 0x33 0xA2 0x91 0xC2 0x95 0xD2 0x95 0x33 0xA2 0x91 0xC2 0x95 0xD2 0x95 0x33 0xA2 0x91 0xC2 0x95 0xD2 0xBA 0xD7 
write to 0x36 ack data: 0x0C 0xC0 0x95 0x33 0xA2 0x91 0xC2 0x95 0xD2 0x95 0x33 0xA2 0x91 0xC2 0x95 0xD2 0x95 0x33 0xA2 0x91 0xC2 0x95 0x53 0x91 0xFD 0x33 0xFF 0x22 0x43 0x91 0x01 0x22 0x53 0x91 0xFE 0x22 0x43 0x91 0x02 0x22 0x53 0x91 0xFD 0x22 0x43 0x91 0x04 0x22 0x53 0x91 0xFB 0x22 0x43 0x92 0x01 0x22 0x53 0x92 0xFE 0x22 0x43 0x92 0x02 0x22 0x53 0x92 0x14 0x6B 
write to 0x36 ack data: 0x0D 0x00 0xFD 0x22 0x43 0x92 0x04 0x22 0x53 0x92 0xFB 0x22 0x43 0x90 0x08 0x22 0x53 0x90 0xF7 0x22 0xC0 0xE0 0xE5 0x90 0x54 0x08 0x70 0x05 0x12 0x0D 0x0A 0x80 0x03 0x12 0x0D 0x0E 0xD0 0xE0 0x22 0xC0 0xE0 0xE5 0x90 0x54 0x01 0xFF 0xD0 0xE0 0x22 0x43 0x90 0x10 0x22 0x53 0x90 0xEF 0x22 0xC0 0xE0 0xE5 0x90 0x54 0x10 0x70 0x05 0x12 0x8E 0x61 
write to 0x36 ack data: 0x0D 0x40 0x0D 0x2F 0x80 0x03 0x12 0x0D 0x33 0xD0 0xE0 0x22 0xC0 0xE0 0xE5 0x90 0x54 0x02 0xC3 0x13 0xFF 0xD0 0xE0 0x22 0x43 0x90 0x20 0x22 0x53 0x90 0xDF 0x22 0xC0 0xE0 0xE5 0x90 0x54 0x20 0x70 0x05 0x12 0x0D 0x56 0x80 0x03 0x12 0x0D 0x5A 0xD0 0xE0 0x22 0xC0 0xE0 0xE5 0x90 0x54 0x04 0xC3 0x13 0x13 0xFF 0xD0 0xE0 0x22 0x43 0x91 0xF6 0xD4 
write to 0x36 ack data: 0x0D 0x80 0x80 0x43 0x80 0x01 0x22 0x53 0x91 0x7F 0x53 0x80 0xFE 0x22 0xC3 0x90 0x60 0x01 0xE0 0x94 0x40 0x90 0x60 0x00 0xE0 0x94 0x38 0x40 0x1B 0x12 0x12 0xEA 0xE4 0x90 0x60 0x00 0xF0 0xA3 0xF0 0x75 0x21 0x01 0x7B 0x09 0xFA 0x7D 0x05 0x7F 0x71 0x7E 0xAF 0x12 0x10 0x4F 0x80 0x10 0x12 0x12 0xC2 0x90 0x60 0x01 0xE0 0x2F 0xF0 0x90 0xDF 0x61 
write to 0x36 ack data: 0x0D 0xC0 0x60 0x00 0xE0 0x34 0x00 0xF0 0xC3 0x90 0x60 0x05 0xE0 0x94 0x84 0x90 0x60 0x04 0xE0 0x94 0x03 0x40 0x0C 0x12 0x13 0x80 0xE4 0x90 0x60 0x04 0xF0 0xA3 0xF0 0x80 0x10 0x12 0x12 0xC2 0x90 0x60 0x05 0xE0 0x2F 0xF0 0x90 0x60 0x04 0xE0 0x34 0x00 0xF0 0xC3 0x90 0x60 0x03 0xE0 0x94 0x84 0x90 0x60 0x02 0xE0 0x94 0x03 0x40 0x0B 0xCC 0xDF 
write to 0x36 ack data: 0x0E 0x00 0x12 0x13 0x7D 0xE4 0x90 0x60 0x02 0xF0 0xA3 0xF0 0x22 0x12 0x12 0xC2 0x90 0x60 0x03 0xE0 0x2F 0xF0 0x90 0x60 0x02 0xE0 0x34 0x00 0xF0 0x22 0x78 0x80 0x76 0x02 0xE5 0x31 0x24 0xFE 0x08 0xF6 0x90 0x42 0x27 0xE0 0x08 0xF6 0x90 0x42 0x26 0xE0 0x08 0xF6 0x08 0xE4 0xF6 0x08 0xF6 0x90 0x42 0x25 0xE0 0x08 0xF6 0x90 0x42 0x24 0x94 0x0B 
write to 0x36 ack data: 0x0E 0x40 0xE0 0x08 0xF6 0x08 0x76 0x07 0x08 0x76 0xFF 0x08 0x76 0xFF 0x08 0x76 0xFF 0x12 0x12 0x60 0x08 0xA6 0x07 0x12 0x13 0x6C 0x78 0x8D 0xA6 0x07 0x12 0x13 0x1F 0x78 0x8E 0xA6 0x07 0x12 0x13 0x66 0x78 0x8F 0xA6 0x07 0x08 0x76 0x11 0x08 0x76 0x07 0x08 0x76 0x03 0x08 0x76 0xCE 0x08 0x76 0x85 0x08 0x76 0x0D 0x08 0x76 0x23 0x08 0x62 0x3C 
write to 0x36 ack data: 0x0E 0x80 0x76 0xDE 0x08 0x76 0x13 0x08 0x76 0xA0 0x08 0x76 0x87 0x08 0x76 0x4B 0x08 0x76 0x11 0x08 0x76 0x37 0x08 0x76 0x60 0x08 0x76 0x94 0x08 0x76 0xA0 0x08 0x76 0x5C 0x75 0x31 0x22 0xE5 0x31 0x24 0xFE 0x78 0x81 0xF6 0x22 0x8F 0x24 0x8B 0x25 0x8A 0x26 0x89 0x27 0x12 0x0C 0x2D 0x7F 0xE2 0x12 0x0C 0x5F 0x12 0x0C 0x4D 0xEF 0x20 0xDB 0x6E 
write to 0x36 ack data: 0x0E 0xC0 0xE0 0x58 0xAF 0x24 0x12 0x0C 0x5F 0x12 0x0C 0x4D 0xEF 0x20 0xE0 0x4C 0x12 0x0C 0x2D 0x7F 0xE3 0x12 0x0C 0x5F 0x12 0x0C 0x4D 0xEF 0x20 0xE0 0x3D 0xAF 0x28 0x15 0x28 0xEF 0x60 0x20 0x12 0x0C 0x99 0xAB 0x25 0xAA 0x26 0xA9 0x27 0xEF 0x12 0x0A 0x99 0x74 0x01 0x25 0x27 0xF5 0x27 0xE4 0x35 0x26 0xF5 0x26 0x12 0x0C 0x3D 0xE5 0x2D 0x71 
write to 0x36 ack data: 0x0F 0x00 0x28 0xB4 0x01 0xD9 0x12 0x0C 0x99 0xAB 0x25 0xAA 0x26 0xA9 0x27 0xEF 0x12 0x0A 0x99 0x12 0x0C 0x46 0x12 0x0C 0x36 0x7F 0x01 0x22 0x12 0x0C 0x36 0x7F 0x00 0x22 0x90 0x60 0x0A 0xE0 0x04 0xF0 0xC3 0x90 0x60 0x07 0xE0 0x94 0x0F 0x90 0x60 0x06 0xE0 0x94 0x00 0x40 0x1C 0x12 0x08 0x91 0x8E 0x1C 0x8F 0x1D 0x7C 0x00 0x7D 0x19 0x9C 0xDF 
write to 0x36 ack data: 0x0F 0x40 0x12 0x0A 0xAB 0x90 0x60 0x0B 0xEF 0xF0 0xE4 0x90 0x60 0x06 0xF0 0xA3 0xF0 0x80 0x10 0x12 0x12 0xC2 0x90 0x60 0x07 0xE0 0x2F 0xF0 0x90 0x60 0x06 0xE0 0x34 0x00 0xF0 0xC3 0x90 0x60 0x09 0xE0 0x94 0x0F 0x90 0x60 0x08 0xE0 0x94 0x00 0x40 0x10 0x12 0x0F 0xF3 0x90 0x60 0x0C 0xEF 0xF0 0xE4 0x90 0x60 0x08 0xF0 0xA3 0xF0 0x22 0xDA 0xD2 
write to 0x36 ack data: 0x0F 0x80 0x12 0x12 0xC2 0x90 0x60 0x09 0xE0 0x2F 0xF0 0x90 0x60 0x08 0xE0 0x34 0x00 0xF0 0x22 0x8B 0x2A 0x8A 0x2B 0x89 0x2C 0x8C 0x2D 0x8D 0x2E 0x74 0xFF 0xFD 0xFC 0xE4 0xF5 0x2F 0xE5 0x2E 0x15 0x2E 0xAE 0x2D 0x70 0x02 0x15 0x2D 0x4E 0x60 0x3F 0xAB 0x2A 0x05 0x2C 0xE5 0x2C 0xAA 0x2B 0x70 0x02 0x05 0x2B 0x14 0xF9 0x12 0x0A 0x53 0x40 0x1D 
write to 0x36 ack data: 0x0F 0xC0 0xF5 0x2F 0xFE 0xEE 0x62 0x04 0xE4 0xF5 0x30 0xE5 0x30 0xC3 0x94 0x08 0x50 0xD2 0xEC 0x30 0xE7 0x0F 0xED 0x25 0xE0 0xFF 0xEC 0x33 0x64 0x10 0xFC 0xEF 0x64 0x21 0xFD 0x80 0x07 0xED 0x25 0xE0 0xFD 0xEC 0x33 0xFC 0x05 0x30 0x80 0xDB 0xAE 0x04 0xAF 0x05 0x22 0x12 0x08 0x8C 0x8F 0x1E 0x90 0x60 0x16 0xE0 0xFF 0xC3 0xE5 0x1E 0x43 0x00 
write to 0x36 ack data: 0x10 0x00 0x9F 0xF5 0x1F 0xFF 0x33 0x95 0xE0 0xFE 0x12 0x13 0x4B 0xD3 0xEF 0x94 0x0A 0xEE 0x64 0x80 0x94 0x80 0x40 0x2A 0x12 0x08 0x8C 0x8F 0x1E 0x12 0x08 0x8C 0x8F 0x1F 0xC3 0xE5 0x1F 0x95 0x1E 0xF5 0x1F 0xFF 0x33 0x95 0xE0 0xFE 0x12 0x13 0x4B 0xD3 0xEF 0x94 0x03 0xEE 0x64 0x80 0x94 0x80 0x40 0x06 0x90 0x60 0x16 0xE0 0xF5 0x1E 0x8D 0xEF 
write to 0x36 ack data: 0x10 0x40 0xAF 0x1E 0x90 0x60 0x16 0xEF 0xF0 0x90 0x60 0x78 0xF0 0x24 0x14 0xFF 0x22 0x8E 0x1C 0x8F 0x1D 0x8D 0x1E 0x8A 0x1F 0x8B 0x20 0x12 0x0C 0x22 0x12 0x12 0x95 0x7D 0x01 0x7F 0x33 0x12 0x11 0xAE 0x7D 0x1A 0xE4 0xFF 0x12 0x11 0xAE 0x7D 0x95 0x7F 0x07 0x12 0x11 0xAE 0xE5 0x1C 0xFD 0x7F 0x0C 0x12 0x11 0xAE 0xAD 0x1D 0x7F 0x0D 0xBB 0x79 
write to 0x36 ack data: 0x10 0x80 0x12 0x11 0xAE 0xAD 0x1E 0x7F 0x16 0x12 0x11 0xAE 0xAD 0x20 0x7F 0x17 0x12 0x11 0xAE 0xE5 0x1F 0xFD 0x7F 0x18 0x12 0x11 0xAE 0x7D 0x47 0x7F 0x2A 0x12 0x11 0xAE 0xE5 0x21 0x60 0x03 0x12 0x11 0x3C 0x22 0x8F 0x24 0x8B 0x25 0x8A 0x26 0x89 0x27 0x12 0x0C 0x2D 0x7F 0xE2 0x12 0x0C 0x5F 0x12 0x0C 0x4D 0xEF 0x20 0xE0 0x3A 0xAF 0x4F 0x14 
write to 0x36 ack data: 0x10 0xC0 0x24 0x12 0x0C 0x5F 0x12 0x0C 0x4D 0xEF 0x20 0xE0 0x2E 0xE4 0xF5 0x29 0xE5 0x29 0xC3 0x95 0x28 0x50 0x1E 0xAB 0x25 0xAA 0x26 0xA9 0x27 0x85 0x29 0x82 0x75 0x83 0x00 0x12 0x0A 0x6C 0xFF 0x12 0x0C 0x5F 0x12 0x0C 0x4D 0xEF 0x20 0xE0 0x0A 0x05 0x29 0x80 0xDB 0x12 0x0C 0x36 0x7F 0x01 0x22 0x12 0x0C 0x36 0x7F 0x00 0x22 0xBF 0x22 0x07 
write to 0x36 ack data: 0x11 0x00 0x01 0x37 0x12 0x11 0x77 0x90 0x60 0x00 0x74 0x38 0xF0 0xA3 0x74 0x40 0xF0 0xA3 0x74 0x03 0xF0 0xA3 0x74 0x84 0xF0 0xA3 0x74 0x03 0xF0 0xA3 0x74 0x84 0xF0 0xA3 0xE4 0xF0 0xA3 0x74 0x0F 0xF0 0xA3 0xE4 0xF0 0xA3 0x74 0x0F 0xF0 0x12 0x13 0x89 0x12 0x08 0x42 0x12 0x0B 0x63 0xE4 0xF5 0x89 0x02 0x13 0x2F 0x7B 0x00 0x7A 0x00 0x33 0xE6 
write to 0x36 ack data: 0x11 0x40 0x79 0x22 0x75 0x28 0x02 0x7F 0x1D 0x12 0x0E 0xAB 0x43 0x22 0x80 0x43 0x23 0x01 0x7B 0x00 0x7A 0x00 0x79 0x22 0x75 0x28 0x02 0x7F 0x1D 0x12 0x10 0xA8 0x7B 0x00 0x7A 0x00 0x79 0x22 0x75 0x28 0x02 0x7F 0x1D 0x12 0x0E 0xAB 0xE5 0x22 0x20 0xE7 0xED 0xE5 0x23 0x20 0xE0 0xE8 0x22 0x78 0x80 0x74 0x00 0x90 0x60 0x00 0xF0 0xA3 0x58 0xFF 
write to 0x36 ack data: 0x11 0x80 0xD8 0xFC 0x79 0x00 0x7A 0x00 0x7B 0x00 0x7C 0x00 0x7D 0x00 0x7E 0x00 0x7F 0x00 0x90 0x60 0x6C 0x74 0x01 0xF0 0x90 0x60 0x76 0x74 0x7F 0xF0 0x90 0x60 0x77 0x74 0xFF 0xF0 0x12 0x09 0x29 0x90 0x60 0x74 0xEE 0xF0 0xA3 0xEF 0xF0 0x22 0x8F 0x23 0x8D 0x24 0x12 0x0C 0x2D 0x7F 0xE2 0x12 0x0C 0x5F 0x12 0x0C 0x4D 0xEF 0x20 0xE0 0x81 0xAA 
write to 0x36 ack data: 0x11 0xC0 0x1E 0xAF 0x23 0x12 0x0C 0x5F 0x12 0x0C 0x4D 0xEF 0x20 0xE0 0x12 0xAF 0x24 0x12 0x0C 0x5F 0x12 0x0C 0x4D 0xEF 0x20 0xE0 0x06 0x12 0x0C 0x36 0x7F 0x01 0x22 0x12 0x0C 0x36 0x7F 0x00 0x22 0x8D 0x1D 0x8B 0x1E 0xAC 0x07 0xEC 0x60 0x20 0x1C 0x12 0x12 0x95 0xAD 0x04 0x7F 0x15 0x12 0x11 0xAE 0x7B 0x00 0x7A 0x00 0x79 0x80 0xAD 0x66 0xC8 
write to 0x36 ack data: 0x12 0x00 0x1D 0x12 0x12 0x39 0xE5 0x1E 0x44 0x80 0xFD 0x7F 0x1A 0x12 0x11 0xAE 0x22 0x75 0xF0 0x3B 0x02 0x09 0x04 0x75 0xF0 0x3C 0x02 0x09 0x04 0x75 0xF0 0x3D 0x02 0x09 0x04 0x75 0xF0 0x3E 0x02 0x09 0x04 0x75 0xF0 0x40 0x02 0x09 0x04 0x75 0xF0 0x41 0x02 0x09 0x04 0x75 0xF0 0x42 0x02 0x09 0x04 0x8B 0x1F 0x8A 0x20 0x89 0x21 0x8D 0x7D 0xAB 
write to 0x36 ack data: 0x12 0x40 0x22 0xE4 0xFD 0x7F 0x12 0x12 0x11 0xAE 0xE5 0x22 0x44 0x80 0xFD 0x7F 0x11 0x12 0x11 0xAE 0xAB 0x1F 0xAA 0x20 0xA9 0x21 0x85 0x22 0x28 0x7F 0x10 0x02 0x10 0xA8 0x90 0x40 0x00 0xE0 0x90 0x60 0x17 0xF0 0xE5 0x32 0x70 0x09 0x75 0x32 0x01 0xE0 0x24 0x80 0xF0 0x80 0x03 0xE4 0xF5 0x32 0x90 0x60 0x17 0xE0 0xFF 0x22 0x12 0x12 0x8F 0xE2 
write to 0x36 ack data: 0x12 0x80 0xC2 0x7E 0x00 0x7C 0x02 0x7D 0x61 0x12 0x0B 0x36 0xE4 0xFB 0xFA 0xFD 0xFC 0x12 0x13 0x83 0x02 0x09 0x17 0x53 0x90 0xDF 0x43 0x90 0x20 0x7F 0x02 0x12 0x13 0x0E 0x53 0x90 0xDF 0x7F 0x13 0x12 0x13 0x0E 0x43 0x90 0x20 0x22 0x41 0x60 0x0A 0x00 0x41 0x60 0x0B 0x00 0x41 0x60 0x0C 0x00 0x01 0x31 0x00 0x41 0x60 0x14 0x00 0x01 0x7B 0xB0 
write to 0x36 ack data: 0x12 0xC0 0x32 0x00 0x90 0x60 0x17 0x74 0x03 0xF0 0xC3 0x94 0x01 0x50 0x03 0x74 0x01 0xF0 0x90 0x60 0x17 0xE0 0xFF 0x22 0xE4 0x90 0x60 0x0D 0xF0 0xA3 0xF0 0xA3 0xF0 0xA3 0xF0 0xA3 0xF0 0xA3 0xF0 0xA3 0xF0 0x02 0x12 0x2D 0x90 0x60 0x15 0xE0 0x60 0x03 0x02 0x08 0xB7 0x12 0x08 0x20 0x90 0x60 0x15 0x74 0x01 0xF0 0x22 0xAD 0x07 0xAC 0x4C 0x90 
write to 0x36 ack data: 0x13 0x00 0x06 0xC2 0xEA 0x8C 0xAF 0xED 0xF5 0xAE 0x43 0xB1 0x40 0xD2 0xEA 0x22 0xE4 0xFE 0xEE 0xC3 0x9F 0x50 0x09 0xE4 0xFD 0x0D 0xBD 0x0F 0xFC 0x0E 0x80 0xF2 0x22 0x12 0x08 0x91 0x7C 0x00 0x7D 0x19 0x12 0x0A 0xAB 0x90 0x60 0x17 0xEF 0xF0 0x22 0x12 0x0D 0x8C 0x12 0x0F 0x20 0x12 0x13 0x78 0x12 0x12 0x7E 0x80 0xF2 0x8F 0x1C 0x12 0x89 0x6E 
write to 0x36 ack data: 0x13 0x40 0x0E 0x1C 0x7B 0x07 0xAD 0x31 0xAF 0x1C 0x02 0x11 0xE5 0xEE 0x30 0xE7 0x07 0xC3 0xE4 0x9F 0xFF 0xE4 0x9E 0xFE 0x22 0xAF 0xAF 0xEF 0xFE 0xAD 0xAE 0xED 0xFF 0x22 0x90 0x60 0x0B 0xE0 0xFF 0x22 0x90 0x60 0x0C 0xE0 0xFF 0x22 0x90 0x60 0x0A 0xE0 0xFF 0x22 0xE4 0xF5 0xAF 0xF5 0xAE 0x22 0x7F 0x01 0x02 0x13 0x3D 0x02 0x08 0x72 0x24 0xF4 
write to 0x36 ack data: 0x13 0x80 0x02 0x08 0x10 0x02 0x08 0xD7 0xD2 0xC1 0x22 0xC2 0xC1 0x22 0xC2 0xEA 0x22 0xFF 0xFF 0xFF 0xFF 0xFF 0xFF 0xFF 0xFF 0xFF 0xFF 0xFF 0xFF 0xFF 0xFF 0xFF 0xFF 0xFF 0xFF 0xFF 0xFF 0xFF 0xFF 0xFF 0xFF 0xFF 0xFF 0xFF 0xFF 0xFF 0xFF 0xFF 0xFF 0xFF 0xFF 0xFF 0xFF 0xFF 0xFF 0xFF 0xFF 0xFF 0xFF 0xFF 0xFF 0xFF 0xFF 0xFF 0xFF 0xFF 0xFA 0x3A 
write to 0x36 ack data: 0x13 0xC0 0xFF 0xFF 0xFF 0xFF 0xFF 0xFF 0xFF 0xFF 0xFF 0xFF 0xFF 0xFF 0xFF 0xFF 0xFF 0xFF 0xFF 0xFF 0xFF 0xFF 0xFF 0xFF 0xFF 0xFF 0xFF 0xFF 0xFF 0xFF 0xFF 0xFF 0xFF 0xFF 0xFF 0xFF 0xFF 0xFF 0xFF 0xFF 0xFF 0xFF 0xFF 0xFF 0xFF 0xFF 0xFF 0xFF 0xFF 0xFF 0xFF 0xFF 0xFF 0xFF 0xFF 0xFF 0xFF 0xFF 0xFF 0xFF 0xFF 0xFF 0xFF 0xFF 0xFF 0xFF 0xDF 0x8D 
write to 0x36 ack data: 0x14 0x00 0xFF 0xFF 0xFF 0xFF 0xFF 0xFF 0xFF 0xFF 0xFF 0xFF 0xFF 0xFF 0xFF 0xFF 0xFF 0xFF 0xFF 0xFF 0xFF 0xFF 0xFF 0xFF 0xFF 0xFF 0xFF 0xFF 0xFF 0xFF 0xFF 0xFF 0xFF 0xFF 0xFF 0xFF 0xFF 0xFF 0xFF 0xFF 0xFF 0xFF 0xFF 0xFF 0xFF 0xFF 0xFF 0xFF 0xFF 0xFF 0xFF 0xFF 0xFF 0xFF 0xFF 0xFF 0xFF 0xFF 0xFF 0xFF 0xFF 0xFF 0xFF 0xFF 0xFF 0xFF 0x59 0x11 
write to 0x36 ack data: 0x14 0x40 0xFF 0xFF 0xFF 0xFF 0xFF 0xFF 0xFF 0xFF 0xFF 0xFF 0xFF 0xFF 0xFF 0xFF 0xFF 0xFF 0xFF 0xFF 0xFF 0xFF 0xFF 0xFF 0xFF 0xFF 0xFF 0xFF 0xFF 0xFF 0xFF 0xFF 0xFF 0xFF 0xFF 0xFF 0xFF 0xFF 0xFF 0xFF 0xFF 0xFF 0xFF 0xFF 0xFF 0xFF 0xFF 0xFF 0xFF 0xFF 0xFF 0xFF 0xFF 0xFF 0xFF 0xFF 0xFF 0xFF 0xFF 0xFF 0xFF 0xFF 0xFF 0xFF 0xFF 0xFF 0x86 0x2E 
write to 0x36 ack data: 0x14 0x80 0xFF 0xFF 0xFF 0xFF 0xFF 0xFF 0xFF 0xFF 0xFF 0xFF 0xFF 0xFF 0xFF 0xFF 0xFF 0xFF 0xFF 0xFF 0xFF 0xFF 0xFF 0xFF 0xFF 0xFF 0xFF 0xFF 0xFF 0xFF 0xFF 0xFF 0xFF 0xFF 0xFF 0xFF 0xFF 0xFF 0xFF 0xFF 0xFF 0xFF 0xFF 0xFF 0xFF 0xFF 0xFF 0xFF 0xFF 0xFF 0xFF 0xFF 0xFF 0xFF 0xFF 0xFF 0xFF 0xFF 0xFF 0xFF 0xFF 0xFF 0xFF 0xFF 0xFF 0xFF 0xF7 0x4E 
write to 0x36 ack data: 0x14 0xC0 0xFF 0xFF 0xFF 0xFF 0xFF 0xFF 0xFF 0xFF 0xFF 0xFF 0xFF 0xFF 0xFF 0xFF 0xFF 0xFF 0xFF 0xFF 0xFF 0xFF 0xFF 0xFF 0xFF 0xFF 0xFF 0xFF 0xFF 0xFF 0xFF 0xFF 0xFF 0xFF 0xFF 0xFF 0xFF 0xFF 0xFF 0xFF 0xFF 0xFF 0xFF 0xFF 0xFF 0xFF 0xFF 0xFF 0xFF 0xFF 0xFF 0xFF 0xFF 0xFF 0xFF 0xFF 0xFF 0xFF 0xFF 0xFF 0xFF 0xFF 0xFF 0xFF 0xFF 0xFF 0x28 0x71 
write to 0x36 ack data: 0x15 0x00 0xFF 0xFF 0xFF 0xFF 0xFF 0xFF 0xFF 0xFF 0xFF 0xFF 0xFF 0xFF 0xFF 0xFF 0xFF 0xFF 0xFF 0xFF 0xFF 0xFF 0xFF 0xFF 0xFF 0xFF 0xFF 0xFF 0xFF 0xFF 0xFF 0xFF 0xFF 0xFF 0xFF 0xFF 0xFF 0xFF 0xFF 0xFF 0xFF 0xFF 0xFF 0xFF 0xFF 0xFF 0xFF 0xFF 0xFF 0xFF 0xFF 0xFF 0xFF 0xFF 0xFF 0xFF 0xFF 0xFF 0xFF 0xFF 0xFF 0xFF 0xFF 0xFF 0xFF 0xFF 0x15 0x8E 
write to 0x36 ack data: 0x15 0x40 0xFF 0xFF 0xFF 0xFF 0xFF 0xFF 0xFF 0xFF 0xFF 0xFF 0xFF 0xFF 0xFF 0xFF 0xFF 0xFF 0xFF 0xFF 0xFF 0xFF 0xFF 0xFF 0xFF 0xFF 0xFF 0xFF 0xFF 0xFF 0xFF 0xFF 0xFF 0xFF 0xFF 0xFF 0xFF 0xFF 0xFF 0xFF 0xFF 0xFF 0xFF 0xFF 0xFF 0xFF 0xFF 0xFF 0xFF 0xFF 0xFF 0xFF 0xFF 0xFF 0xFF 0xFF 0xFF 0xFF 0xFF 0xFF 0xFF 0xFF 0xFF 0xFF 0xFF 0xFF 0xCA 0xB1 
write to 0x36 ack data: 0x15 0x80 0xFF 0xFF 0xFF 0xFF 0xFF 0xFF 0xFF 0xFF 0xFF 0xFF 0xFF 0xFF 0xFF 0xFF 0xFF 0xFF 0xFF 0xFF 0xFF 0xFF 0xFF 0xFF 0xFF 0xFF 0xFF 0xFF 0xFF 0xFF 0xFF 0xFF 0xFF 0xFF 0xFF 0xFF 0xFF 0xFF 0xFF 0xFF 0xFF 0xFF 0xFF 0xFF 0xFF 0xFF 0xFF 0xFF 0xFF 0xFF 0xFF 0xFF 0xFF 0xFF 0xFF 0xFF 0xFF 0xFF 0xFF 0xFF 0xFF 0xFF 0xFF 0xFF 0xFF 0xFF 0xBB 0xD1 
write to 0x36 ack data: 0x15 0xC0 0xFF 0xFF 0xFF 0xFF 0xFF 0xFF 0xFF 0xFF 0xFF 0xFF 0xFF 0xFF 0xFF 0xFF 0xFF 0xFF 0xFF 0xFF 0xFF 0xFF 0xFF 0xFF 0xFF 0xFF 0xFF 0xFF 0xFF 0xFF 0xFF 0xFF 0xFF 0xFF 0xFF 0xFF 0xFF 0xFF 0xFF 0xFF 0xFF 0xFF 0xFF 0xFF 0xFF 0xFF 0xFF 0xFF 0xFF 0xFF 0xFF 0xFF 0xFF 0xFF 0xFF 0xFF 0xFF 0xFF 0xFF 0xFF 0xFF 0xFF 0xFF 0xFF 0xFF 0xFF 0x64 0xEE 
write to 0x36 ack data: 0x16 0x00 0xFF 0xFF 0xFF 0xFF 0xFF 0xFF 0xFF 0xFF 0xFF 0xFF 0xFF 0xFF 0xFF 0xFF 0xFF 0xFF 0xFF 0xFF 0xFF 0xFF 0xFF 0xFF 0xFF 0xFF 0xFF 0xFF 0xFF 0xFF 0xFF 0xFF 0xFF 0xFF 0xFF 0xFF 0xFF 0xFF 0xFF 0xFF 0xFF 0xFF 0xFF 0xFF 0xFF 0xFF 0xFF 0xFF 0xFF 0xFF 0xFF 0xFF 0xFF 0xFF 0xFF 0xFF 0xFF 0xFF 0xFF 0xFF 0xFF 0xFF 0xFF 0xFF 0xFF 0xFF 0xC0 0x2F 
write to 0x36 ack data: 0x16 0x40 0xFF 0xFF 0xFF 0xFF 0xFF 0xFF 0xFF 0xFF 0xFF 0xFF 0xFF 0xFF 0xFF 0xFF 0xFF 0xFF 0xFF 0xFF 0xFF 0xFF 0xFF 0xFF 0xFF 0xFF 0xFF 0xFF 0xFF 0xFF 0xFF 0xFF 0xFF 0xFF 0xFF 0xFF 0xFF 0xFF 0xFF 0xFF 0xFF 0xFF 0xFF 0xFF 0xFF 0xFF 0xFF 0xFF 0xFF 0xFF 0xFF 0xFF 0xFF 0xFF 0xFF 0xFF 0xFF 0xFF 0xFF 0xFF 0xFF 0xFF 0xFF 0xFF 0xFF 0xFF 0x1F 0x10 
write to 0x36 ack data: 0x16 0x80 0xFF 0xFF 0xFF 0xFF 0xFF 0xFF 0xFF 0xFF 0xFF 0xFF 0xFF 0xFF 0xFF 0xFF 0xFF 0xFF 0xFF 0xFF 0xFF 0xFF 0xFF 0xFF 0xFF 0xFF 0xFF 0xFF 0xFF 0xFF 0xFF 0xFF 0xFF 0xFF 0xFF 0xFF 0xFF 0xFF 0xFF 0xFF 0xFF 0xFF 0xFF 0xFF 0xFF 0xFF 0xFF 0xFF 0xFF 0xFF 0xFF 0xFF 0xFF 0xFF 0xFF 0xFF 0xFF 0xFF 0xFF 0xFF 0xFF 0xFF 0xFF 0xFF 0xFF 0xFF 0x6E 0x70 
write to 0x36 ack data: 0x16 0xC0 0xFF 0xFF 0xFF 0xFF 0xFF 0xFF 0xFF 0xFF 0xFF 0xFF 0xFF 0xFF 0xFF 0xFF 0xFF 0xFF 0xFF 0xFF 0xFF 0xFF 0xFF 0xFF 0xFF 0xFF 0xFF 0xFF 0xFF 0xFF 0xFF 0xFF 0xFF 0xFF 0xFF 0xFF 0xFF 0xFF 0xFF 0xFF 0xFF 0xFF 0xFF 0xFF 0xFF 0xFF 0xFF 0xFF 0xFF 0xFF 0xFF 0xFF 0xFF 0xFF 0xFF 0xFF 0xFF 0xFF 0xFF 0xFF 0xFF 0xFF 0xFF 0xFF 0xFF 0xFF 0xB1 0x4F 
write to 0x36 ack data: 0x17 0x00 0xFF 0xFF 0xFF 0xFF 0xFF 0xFF 0xFF 0xFF 0xFF 0xFF 0xFF 0xFF 0xFF 0xFF 0xFF 0xFF 0xFF 0xFF 0xFF 0xFF 0xFF 0xFF 0xFF 0xFF 0xFF 0xFF 0xFF 0xFF 0xFF 0xFF 0xFF 0xFF 0xFF 0xFF 0xFF 0xFF 0xFF 0xFF 0xFF 0xFF 0xFF 0xFF 0xFF 0xFF 0xFF 0xFF 0xFF 0xFF 0xFF 0xFF 0xFF 0xFF 0xFF 0xFF 0xFF 0xFF 0xFF 0xFF 0xFF 0xFF 0xFF 0xFF 0xFF 0xFF 0x8C 0xB0 
write to 0x36 ack data: 0x17 0x40 0xFF 0xFF 0xFF 0xFF 0xFF 0xFF 0xFF 0xFF 0xFF 0xFF 0xFF 0xFF 0xFF 0xFF 0xFF 0xFF 0xFF 0xFF 0xFF 0xFF 0xFF 0xFF 0xFF 0xFF 0xFF 0xFF 0xFF 0xFF 0xFF 0xFF 0xFF 0xFF 0xFF 0xFF 0xFF 0xFF 0xFF 0xFF 0xFF 0xFF 0xFF 0xFF 0xFF 0xFF 0xFF 0xFF 0xFF 0xFF 0xFF 0xFF 0xFF 0xFF 0xFF 0xFF 0xFF 0xFF 0xFF 0xFF 0xFF 0xFF 0xFF 0xFF 0xFF 0xFF 0x53 0x8F 
write to 0x36 ack data: 0x17 0x80 0xFF 0xFF 0xFF 0xFF 0xFF 0xFF 0xFF 0xFF 0xFF 0xFF 0xFF 0xFF 0xFF 0xFF 0xFF 0xFF 0xFF 0xFF 0xFF 0xFF 0xFF 0xFF 0xFF 0xFF 0xFF 0xFF 0xFF 0xFF 0xFF 0xFF 0xFF 0xFF 0xFF 0xFF 0xFF 0xFF 0xFF 0xFF 0xFF 0xFF 0xFF 0xFF 0xFF 0xFF 0xFF 0xFF 0xFF 0xFF 0xFF 0xFF 0xFF 0xFF 0xFF 0xFF 0xFF 0xFF 0xFF 0xFF 0xFF 0xFF 0xFF 0xFF 0xFF 0xFF 0x22 0xEF 
write to 0x36 ack data: 0x17 0xC0 0xFF 0xFF 0xFF 0xFF 0xFF 0xFF 0xFF 0xFF 0xFF 0xFF 0xFF 0xFF 0xFF 0xFF 0xFF 0xFF 0xFF 0xFF 0xFF 0xFF 0xFF 0xFF 0xFF 0xFF 0xFF 0xFF 0xFF 0xFF 0xFF 0xFF 0xFF 0xFF 0xFF 0xFF 0xFF 0xFF 0xFF 0xFF 0xFF 0xFF 0xFF 0xFF 0xFF 0xFF 0xFF 0xFF 0xFF 0xFF 0xFF 0xFF 0xFF 0xFF 0xFF 0xFF 0xFF 0xFF 0xFF 0xFF 0xFF 0xFF 0xFF 0xFF 0xFF 0xFF 0xFD 0xD0 
write to 0x36 ack data: 0x18 0x00 0xFF 0xFF 0xFF 0xFF 0xFF 0xFF 0xFF 0xFF 0xFF 0xFF 0xFF 0xFF 0xFF 0xFF 0xFF 0xFF 0xFF 0xFF 0xFF 0xFF 0xFF 0xFF 0xFF 0xFF 0xFF 0xFF 0xFF 0xFF 0xFF 0xFF 0xFF 0xFF 0xFF 0xFF 0xFF 0xFF 0xFF 0xFF 0xFF 0xFF 0xFF 0xFF 0xFF 0xFF 0xFF 0xFF 0xFF 0xFF 0xFF 0xFF 0xFF 0xFF 0xFF 0xFF 0xFF 0xFF 0xFF 0xFF 0xFF 0xFF 0xFF 0xFF 0xFF 0xFF 0x3F 0xF6 
write to 0x36 ack data: 0x18 0x40 0xFF 0xFF 0xFF 0xFF 0xFF 0xFF 0xFF 0xFF 0xFF 0xFF 0xFF 0xFF 0xFF 0xFF 0xFF 0xFF 0xFF 0xFF 0xFF 0xFF 0xFF 0xFF 0xFF 0xFF 0xFF 0xFF 0xFF 0xFF 0xFF 0xFF 0xFF 0xFF 0xFF 0xFF 0xFF 0xFF 0xFF 0xFF 0xFF 0xFF 0xFF 0xFF 0xFF 0xFF 0xFF 0xFF 0xFF 0xFF 0xFF 0xFF 0xFF 0xFF 0xFF 0xFF 0xFF 0xFF 0xFF 0xFF 0xFF 0xFF 0xFF 0xFF 0xFF 0xFF 0xE0 0xC9 
write to 0x36 ack data: 0x18 0x80 0xFF 0xFF 0xFF 0xFF 0xFF 0xFF 0xFF 0xFF 0xFF 0xFF 0xFF 0xFF 0xFF 0xFF 0xFF 0xFF 0xFF 0xFF 0xFF 0xFF 0xFF 0xFF 0xFF 0xFF 0xFF 0xFF 0xFF 0xFF 0xFF 0xFF 0xFF 0xFF 0xFF 0xFF 0xFF 0xFF 0xFF 0xFF 0xFF 0xFF 0xFF 0xFF 0xFF 0xFF 0xFF 0xFF 0xFF 0xFF 0xFF 0xFF 0xFF 0xFF 0xFF 0xFF 0xFF 0xFF 0xFF 0xFF 0xFF 0xFF 0xFF 0xFF 0xFF 0xFF 0x91 0xA9 
write to 0x36 ack data: 0x18 0xC0 0xFF 0xFF 0xFF 0xFF 0xFF 0xFF 0xFF 0xFF 0xFF 0xFF 0xFF 0xFF 0xFF 0xFF 0xFF 0xFF 0xFF 0xFF 0xFF 0xFF 0xFF 0xFF 0xFF 0xFF 0xFF 0xFF 0xFF 0xFF 0xFF 0xFF 0xFF 0xFF 0xFF 0xFF 0xFF 0xFF 0xFF 0xFF 0xFF 0xFF 0xFF 0xFF 0xFF 0xFF 0xFF 0xFF 0xFF 0xFF 0xFF 0xFF 0xFF 0xFF 0xFF 0xFF 0xFF 0xFF 0xFF 0xFF 0xFF 0xFF 0xFF 0xFF 0xFF 0xFF 0x4E 0x96 
write to 0x36 ack data: 0x19 0x00 0xFF 0xFF 0xFF 0xFF 0xFF 0xFF 0xFF 0xFF 0xFF 0xFF 0xFF 0xFF 0xFF 0xFF 0xFF 0xFF 0xFF 0xFF 0xFF 0xFF 0xFF 0xFF 0xFF 0xFF 0xFF 0xFF 0xFF 0xFF 0xFF 0xFF 0xFF 0xFF 0xFF 0xFF 0xFF 0xFF 0xFF 0xFF 0xFF 0xFF 0xFF 0xFF 0xFF 0xFF 0xFF 0xFF 0xFF 0xFF 0xFF 0xFF 0xFF 0xFF 0xFF 0xFF 0xFF 0xFF 0xFF 0xFF 0xFF 0xFF 0xFF 0xFF 0xFF 0xFF 0x73 0x69 
write to 0x36 ack data: 0x19 0x40 0xFF 0xFF 0xFF 0xFF 0xFF 0xFF 0xFF 0xFF 0xFF 0xFF 0xFF 0xFF 0xFF 0xFF 0xFF 0xFF 0xFF 0xFF 0xFF 0xFF 0xFF 0xFF 0xFF 0xFF 0xFF 0xFF 0xFF 0xFF 0xFF 0xFF 0xFF 0xFF 0xFF 0xFF 0xFF 0xFF 0xFF 0xFF 0xFF 0xFF 0xFF 0xFF 0xFF 0xFF 0xFF 0xFF 0xFF 0xFF 0xFF 0xFF 0xFF 0xFF 0xFF 0xFF 0xFF 0xFF 0xFF 0xFF 0xFF 0xFF 0xFF 0xFF 0xFF 0xFF 0xAC 0x56 
write to 0x36 ack data: 0x19 0x80 0xFF 0xFF 0xFF 0xFF 0xFF 0xFF 0xFF 0xFF 0xFF 0xFF 0xFF 0xFF 0xFF 0xFF 0xFF 0xFF 0xFF 0xFF 0xFF 0xFF 0xFF 0xFF 0xFF 0xFF 0xFF 0xFF 0xFF 0xFF 0xFF 0xFF 0xFF 0xFF 0xFF 0xFF 0xFF 0xFF 0xFF 0xFF 0xFF 0xFF 0xFF 0xFF 0xFF 0xFF 0xFF 0xFF 0xFF 0xFF 0xFF 0xFF 0xFF 0xFF 0xFF 0xFF 0xFF 0xFF 0xFF 0xFF 0xFF 0xFF 0xFF 0xFF 0xFF 0xFF 0xDD 0x36 
write to 0x36 ack data: 0x19 0xC0 0xFF 0xFF 0xFF 0xFF 0xFF 0xFF 0xFF 0xFF 0xFF 0xFF 0xFF 0xFF 0xFF 0xFF 0xFF 0xFF 0xFF 0xFF 0xFF 0xFF 0xFF 0xFF 0xFF 0xFF 0xFF 0xFF 0xFF 0xFF 0xFF 0xFF 0xFF 0xFF 0xFF 0xFF 0xFF 0xFF 0xFF 0xFF 0xFF 0xFF 0xFF 0xFF 0xFF 0xFF 0xFF 0xFF 0xFF 0xFF 0xFF 0xFF 0xFF 0xFF 0xFF 0xFF 0xFF 0xFF 0xFF 0xFF 0xFF 0xFF 0xFF 0xFF 0xFF 0xFF 0x02 0x09 
write to 0x36 ack data: 0x1A 0x00 0xFF 0xFF 0xFF 0xFF 0xFF 0xFF 0xFF 0xFF 0xFF 0xFF 0xFF 0xFF 0xFF 0xFF 0xFF 0xFF 0xFF 0xFF 0xFF 0xFF 0xFF 0xFF 0xFF 0xFF 0xFF 0xFF 0xFF 0xFF 0xFF 0xFF 0xFF 0xFF 0xFF 0xFF 0xFF 0xFF 0xFF 0xFF 0xFF 0xFF 0xFF 0xFF 0xFF 0xFF 0xFF 0xFF 0xFF 0xFF 0xFF 0xFF 0xFF 0xFF 0xFF 0xFF 0xFF 0xFF 0xFF 0xFF 0xFF 0xFF 0xFF 0xFF 0xFF 0xFF 0xA6 0xC8 
write to 0x36 ack data: 0x1A 0x40 0xFF 0xFF 0xFF 0xFF 0xFF 0xFF 0xFF 0xFF 0xFF 0xFF 0xFF 0xFF 0xFF 0xFF 0xFF 0xFF 0xFF 0xFF 0xFF 0xFF 0xFF 0xFF 0xFF 0xFF 0xFF 0xFF 0xFF 0xFF 0xFF 0xFF 0xFF 0xFF 0xFF 0xFF 0xFF 0xFF 0xFF 0xFF 0xFF 0xFF 0xFF 0xFF 0xFF 0xFF 0xFF 0xFF 0xFF 0xFF 0xFF 0xFF 0xFF 0xFF 0xFF 0xFF 0xFF 0xFF 0xFF 0xFF 0xFF 0xFF 0xFF 0xFF 0xFF 0xFF 0x79 0xF7 
write to 0x36 ack data: 0x1A 0x80 0xFF 0xFF 0xFF 0xFF 0xFF 0xFF 0xFF 0xFF 0xFF 0xFF 0xFF 0xFF 0xFF 0xFF 0xFF 0xFF 0xFF 0xFF 0xFF 0xFF 0xFF 0xFF 0xFF 0xFF 0xFF 0xFF 0xFF 0xFF 0xFF 0xFF 0xFF 0xFF 0xFF 0xFF 0xFF 0xFF 0xFF 0xFF 0xFF 0xFF 0xFF 0xFF 0xFF 0xFF 0xFF 0xFF 0xFF 0xFF 0xFF 0xFF 0xFF 0xFF 0xFF 0xFF 0xFF 0xFF 0xFF 0xFF 0xFF 0xFF 0xFF 0xFF 0xFF 0xFF 0x08 0x97 
write to 0x36 ack data: 0x1A 0xC0 0xFF 0xFF 0xFF 0xFF 0xFF 0xFF 0xFF 0xFF 0xFF 0xFF 0xFF 0xFF 0xFF 0xFF 0xFF 0xFF 0xFF 0xFF 0xFF 0xFF 0xFF 0xFF 0xFF 0xFF 0xFF 0xFF 0xFF 0xFF 0xFF 0xFF 0xFF 0xFF 0xFF 0xFF 0xFF 0xFF 0xFF 0xFF 0xFF 0xFF 0xFF 0xFF 0xFF 0xFF 0xFF 0xFF 0xFF 0xFF 0xFF 0xFF 0xFF 0xFF 0xFF 0xFF 0xFF 0xFF 0xFF 0xFF 0xFF 0xFF 0xFF 0xFF 0xFF 0xFF 0xD7 0xA8 
write to 0x36 ack data: 0x1B 0x00 0xFF 0xFF 0xFF 0xFF 0xFF 0xFF 0xFF 0xFF 0xFF 0xFF 0xFF 0xFF 0xFF 0xFF 0xFF 0xFF 0xFF 0xFF 0xFF 0xFF 0xFF 0xFF 0xFF 0xFF 0xFF 0xFF 0xFF 0xFF 0xFF 0xFF 0xFF 0xFF 0xFF 0xFF 0xFF 0xFF 0xFF 0xFF 0xFF 0xFF 0xFF 0xFF 0xFF 0xFF 0xFF 0xFF 0xFF 0xFF 0xFF 0xFF 0xFF 0xFF 0xFF 0xFF 0xFF 0xFF 0xFF 0xFF 0xFF 0xFF 0xFF 0xFF 0xFF 0xFF 0xEA 0x57 
write to 0x36 ack data: 0x1B 0x40 0xFF 0xFF 0xFF 0xFF 0xFF 0xFF 0xFF 0xFF 0xFF 0xFF 0xFF 0xFF 0xFF 0xFF 0xFF 0xFF 0xFF 0xFF 0xFF 0xFF 0xFF 0xFF 0xFF 0xFF 0xFF 0xFF 0xFF 0xFF 0xFF 0xFF 0xFF 0xFF 0xFF 0xFF 0xFF 0xFF 0xFF 0xFF 0xFF 0xFF 0xFF 0xFF 0xFF 0xFF 0xFF 0xFF 0xFF 0xFF 0xFF 0xFF 0xFF 0xFF 0xFF 0xFF 0xFF 0xFF 0xFF 0xFF 0xFF 0xFF 0xFF 0xFF 0xFF 0xFF 0x35 0x68 
write to 0x36 ack data: 0x1B 0x80 0xFF 0xFF 0xFF 0xFF 0xFF 0xFF 0xFF 0xFF 0xFF 0xFF 0xFF 0xFF 0xFF 0xFF 0xFF 0xFF 0xFF 0xFF 0xFF 0xFF 0xFF 0xFF 0xFF 0xFF 0xFF 0xFF 0xFF 0xFF 0xFF 0xFF 0xFF 0xFF 0xFF 0xFF 0xFF 0xFF 0xFF 0xFF 0xFF 0xFF 0xFF 0xFF 0xFF 0xFF 0xFF 0xFF 0xFF 0xFF 0xFF 0xFF 0xFF 0xFF 0xFF 0xFF 0xFF 0xFF 0xFF 0xFF 0xFF 0xFF 0xFF 0xFF 0xFF 0xFF 0x44 0x08 
write to 0x36 ack data: 0x1B 0xC0 0xFF 0xFF 0xFF 0xFF 0xFF 0xFF 0xFF 0xFF 0xFF 0xFF 0xFF 0xFF 0xFF 0xFF 0xFF 0xFF 0xFF 0xFF 0xFF 0xFF 0xFF 0xFF 0xFF 0xFF 0xFF 0xFF 0xFF 0xFF 0xFF 0xFF 0xFF 0xFF 0xFF 0xFF 0xFF 0xFF 0xFF 0xFF 0xFF 0xFF 0xFF 0xFF 0xFF 0xFF 0xFF 0xFF 0xFF 0xFF 0xFF 0xFF 0xFF 0xFF 0xFF 0xFF 0xFF 0xFF 0xFF 0xFF 0xFF 0xFF 0xFF 0xFF 0xFF 0xFF 0x9B 0x37 
write to 0x36 ack data: 0x1C 0x00 0xFF 0xFF 0xFF 0xFF 0xFF 0xFF 0xFF 0xFF 0xFF 0xFF 0xFF 0xFF 0xFF 0xFF 0xFF 0xFF 0xFF 0xFF 0xFF 0xFF 0xFF 0xFF 0xFF 0xFF 0xFF 0xFF 0xFF 0xFF 0xFF 0xFF 0xFF 0xFF 0xFF 0xFF 0xFF 0xFF 0xFF 0xFF 0xFF 0xFF 0xFF 0xFF 0xFF 0xFF 0xFF 0xFF 0xFF 0xFF 0xFF 0xFF 0xFF 0xFF 0xFF 0xFF 0xFF 0xFF 0xFF 0xFF 0xFF 0xFF 0xFF 0xFF 0xFF 0xFF 0x1D 0xAB 
write to 0x36 ack data: 0x1C 0x40 0xFF 0xFF 0xFF 0xFF 0xFF 0xFF 0xFF 0xFF 0xFF 0xFF 0xFF 0xFF 0xFF 0xFF 0xFF 0xFF 0xFF 0xFF 0xFF 0xFF 0xFF 0xFF 0xFF 0xFF 0xFF 0xFF 0xFF 0xFF 0xFF 0xFF 0xFF 0xFF 0xFF 0xFF 0xFF 0xFF 0xFF 0xFF 0xFF 0xFF 0xFF 0xFF 0xFF 0xFF 0xFF 0xFF 0xFF 0xFF 0xFF 0xFF 0xFF 0xFF 0xFF 0xFF 0xFF 0xFF 0xFF 0xFF 0xFF 0xFF 0xFF 0xFF 0xFF 0xFF 0xC2 0x94 
write to 0x36 ack data: 0x1C 0x80 0xFF 0xFF 0xFF 0xFF 0xFF 0xFF 0xFF 0xFF 0xFF 0xFF 0xFF 0xFF 0xFF 0xFF 0xFF 0xFF 0xFF 0xFF 0xFF 0xFF 0xFF 0xFF 0xFF 0xFF 0xFF 0xFF 0xFF 0xFF 0xFF 0xFF 0xFF 0xFF 0xFF 0xFF 0xFF 0xFF 0xFF 0xFF 0xFF 0xFF 0xFF 0xFF 0xFF 0xFF 0xFF 0xFF 0xFF 0xFF 0xFF 0xFF 0xFF 0xFF 0xFF 0xFF 0xFF 0xFF 0xFF 0xFF 0xFF 0xFF 0xFF 0xFF 0xFF 0xFF 0xB3 0xF4 
write to 0x36 ack data: 0x1C 0xC0 0xFF 0xFF 0xFF 0xFF 0xFF 0xFF 0xFF 0xFF 0xFF 0xFF 0xFF 0xFF 0xFF 0xFF 0xFF 0xFF 0xFF 0xFF 0xFF 0xFF 0xFF 0xFF 0xFF 0xFF 0xFF 0xFF 0xFF 0xFF 0xFF 0xFF 0xFF 0xFF 0xFF 0xFF 0xFF 0xFF 0xFF 0xFF 0xFF 0xFF 0xFF 0xFF 0xFF 0xFF 0xFF 0xFF 0xFF 0xFF 0xFF 0xFF 0xFF 0xFF 0xFF 0xFF 0xFF 0xFF 0xFF 0xFF 0xFF 0xFF 0xFF 0xFF 0xFF 0xFF 0x6C 0xCB 
write to 0x36 ack data: 0x1D 0x00 0xFF 0xFF 0xFF 0xFF 0xFF 0xFF 0xFF 0xFF 0xFF 0xFF 0xFF 0xFF 0xFF 0xFF 0xFF 0xFF 0xFF 0xFF 0xFF 0xFF 0xFF 0xFF 0xFF 0xFF 0xFF 0xFF 0xFF 0xFF 0xFF 0xFF 0xFF 0xFF 0xFF 0xFF 0xFF 0xFF 0xFF 0xFF 0xFF 0xFF 0xFF 0xFF 0xFF 0xFF 0xFF 0xFF 0xFF 0xFF 0xFF 0xFF 0xFF 0xFF 0xFF 0xFF 0xFF 0xFF 0xFF 0xFF 0xFF 0xFF 0xFF 0xFF 0xFF 0xFF 0x51 0x34 
write to 0x36 ack data: 0x1D 0x40 0xFF 0xFF 0xFF 0xFF 0xFF 0xFF 0xFF 0xFF 0xFF 0xFF 0xFF 0xFF 0xFF 0xFF 0xFF 0xFF 0xFF 0xFF 0xFF 0xFF 0xFF 0xFF 0xFF 0xFF 0xFF 0xFF 0xFF 0xFF 0xFF 0xFF 0xFF 0xFF 0xFF 0xFF 0xFF 0xFF 0xFF 0xFF 0xFF 0xFF 0xFF 0xFF 0xFF 0xFF 0xFF 0xFF 0xFF 0xFF 0xFF 0xFF 0xFF 0xFF 0xFF 0xFF 0xFF 0xFF 0xFF 0xFF 0xFF 0xFF 0xFF 0xFF 0xFF 0xFF 0x8E 0x0B 
write to 0x36 ack data: 0x1D 0x80 0xFF 0xFF 0xFF 0xFF 0xFF 0xFF 0xFF 0xFF 0xFF 0xFF 0xFF 0xFF 0xFF 0xFF 0xFF 0xFF 0xFF 0xFF 0xFF 0xFF 0xFF 0xFF 0xFF 0xFF 0xFF 0xFF 0xFF 0xFF 0xFF 0xFF 0xFF 0xFF 0xFF 0xFF 0xFF 0xFF 0xFF 0xFF 0xFF 0xFF 0xFF 0xFF 0xFF 0xFF 0xFF 0xFF 0xFF 0xFF 0xFF 0xFF 0xFF 0xFF 0xFF 0xFF 0xFF 0xFF 0xFF 0xFF 0xFF 0xFF 0xFF 0xFF 0xFF 0xFF 0xFF 0x6B 
write to 0x36 ack data: 0x1D 0xC0 0xFF 0xFF 0xFF 0xFF 0xFF 0xFF 0xFF 0xFF 0xFF 0xFF 0xFF 0xFF 0xFF 0xFF 0xFF 0xFF 0xFF 0xFF 0xFF 0xFF 0xFF 0xFF 0xFF 0xFF 0xFF 0xFF 0xFF 0xFF 0xFF 0xFF 0xFF 0xFF 0xFF 0xFF 0xFF 0xFF 0xFF 0xFF 0xFF 0xFF 0xFF 0xFF 0xFF 0xFF 0xFF 0xFF 0xFF 0xFF 0xFF 0xFF 0xFF 0xFF 0xFF 0xFF 0xFF 0xFF 0xFF 0xFF 0xFF 0xFF 0xFF 0xFF 0xFF 0xFF 0x20 0x54 
write to 0x36 ack data: 0x1E 0x00 0xFF 0xFF 0xFF 0xFF 0xFF 0xFF 0xFF 0xFF 0xFF 0xFF 0xFF 0xFF 0xFF 0xFF 0xFF 0xFF 0xFF 0xFF 0xFF 0xFF 0xFF 0xFF 0xFF 0xFF 0xFF 0xFF 0xFF 0xFF 0xFF 0xFF 0xFF 0xFF 0xFF 0xFF 0xFF 0xFF 0xFF 0xFF 0xFF 0xFF 0xFF 0xFF 0xFF 0xFF 0xFF 0xFF 0xFF 0xFF 0xFF 0xFF 0xFF 0xFF 0xFF 0xFF 0xFF 0xFF 0xFF 0xFF 0xFF 0xFF 0xFF 0xFF 0xFF 0xFF 0x84 0x95 
write to 0x36 ack data: 0x1E 0x40 0xFF 0xFF 0xFF 0xFF 0xFF 0xFF 0xFF 0xFF 0xFF 0xFF 0xFF 0xFF 0xFF 0xFF 0xFF 0xFF 0xFF 0xFF 0xFF 0xFF 0xFF 0xFF 0xFF 0xFF 0xFF 0xFF 0xFF 0xFF 0xFF 0xFF 0xFF 0xFF 0xFF 0xFF 0xFF 0xFF 0xFF 0xFF 0xFF 0xFF 0xFF 0xFF 0xFF 0xFF 0xFF 0xFF 0xFF 0xFF 0xFF 0xFF 0xFF 0xFF 0xFF 0xFF 0xFF 0xFF 0xFF 0xFF 0xFF 0xFF 0xFF 0xFF 0xFF 0xFF 0x5B 0xAA 
write to 0x36 ack data: 0x1E 0x80 0xFF 0xFF 0xFF 0xFF 0xFF 0xFF 0xFF 0xFF 0xFF 0xFF 0xFF 0xFF 0xFF 0xFF 0xFF 0xFF 0xFF 0xFF 0xFF 0xFF 0xFF 0xFF 0xFF 0xFF 0xFF 0xFF 0xFF 0xFF 0xFF 0xFF 0xFF 0xFF 0xFF 0xFF 0xFF 0xFF 0xFF 0xFF 0xFF 0xFF 0xFF 0xFF 0xFF 0xFF 0xFF 0xFF 0xFF 0xFF 0xFF 0xFF 0xFF 0xFF 0xFF 0xFF 0xFF 0xFF 0xFF 0xFF 0xFF 0xFF 0xFF 0xFF 0xFF 0xFF 0x2A 0xCA 
write to 0x36 ack data: 0x1E 0xC0 0xFF 0xFF 0xFF 0xFF 0xFF 0xFF 0xFF 0xFF 0xFF 0xFF 0xFF 0xFF 0xFF 0xFF 0xFF 0xFF 0xFF 0xFF 0xFF 0xFF 0xFF 0xFF 0xFF 0xFF 0xFF 0xFF 0xFF 0xFF 0xFF 0xFF 0xFF 0xFF 0xFF 0xFF 0xFF 0xFF 0xFF 0xFF 0xFF 0xFF 0xFF 0xFF 0xFF 0xFF 0xFF 0xFF 0xFF 0xFF 0xFF 0xFF 0xFF 0xFF 0xFF 0xFF 0xFF 0xFF 0xFF 0xFF 0xFF 0xFF 0xFF 0xFF 0xFF 0xFF 0xF5 0xF5 
write to 0x36 ack data: 0x1F 0x00 0xFF 0xFF 0xFF 0xFF 0xFF 0xFF 0xFF 0xFF 0xFF 0xFF 0xFF 0xFF 0xFF 0xFF 0xFF 0xFF 0xFF 0xFF 0xFF 0xFF 0xFF 0xFF 0xFF 0xFF 0xFF 0xFF 0xFF 0xFF 0xFF 0xFF 0xFF 0xFF 0xFF 0xFF 0xFF 0xFF 0xFF 0xFF 0xFF 0xFF 0xFF 0xFF 0xFF 0xFF 0xFF 0xFF 0xFF 0xFF 0xFF 0xFF 0xFF 0xFF 0xFF 0xFF 0xFF 0xFF 0xFF 0xFF 0xFF 0xFF 0xFF 0xFF 0xFF 0xFF 0xC8 0x0A 
write to 0x36 ack data: 0x1F 0x40 0xFF 0xFF 0xFF 0xFF 0xFF 0xFF 0xFF 0xFF 0xFF 0xFF 0xFF 0xFF 0xFF 0xFF 0xFF 0xFF 0xFF 0xFF 0xFF 0xFF 0xFF 0xFF 0xFF 0xFF 0xFF 0xFF 0xFF 0xFF 0xFF 0xFF 0xFF 0xFF 0xFF 0xFF 0xFF 0xFF 0xFF 0xFF 0xFF 0xFF 0xFF 0xFF 0xFF 0xFF 0xFF 0xFF 0xFF 0xFF 0xFF 0xFF 0xFF 0xFF 0xFF 0xFF 0xFF 0xFF 0xFF 0xFF 0xFF 0xFF 0xFF 0xFF 0xFF 0xFF 0x17 0x35 
write to 0x36 ack data: 0x1F 0x80 0xFF 0xFF 0xFF 0xFF 0xFF 0xFF 0xFF 0xFF 0xFF 0xFF 0xFF 0xFF 0xFF 0xFF 0xFF 0xFF 0xFF 0xFF 0xFF 0xFF 0xFF 0xFF 0xFF 0xFF 0xFF 0xFF 0xFF 0xFF 0xFF 0xFF 0xFF 0xFF 0xFF 0xFF 0xFF 0xFF 0xFF 0xFF 0xFF 0xFF 0xFF 0xFF 0xFF 0xFF 0xFF 0xFF 0xFF 0xFF 0xFF 0xFF 0xFF 0xFF 0xFF 0xFF 0xFF 0xFF 0xFF 0xFF 0xFF 0xFF 0xFF 0xFF 0xFF 0xFF 0x66 0x55 
write to 0x36 ack data: 0x1F 0xC0 0xFF 0xFF 0xFF 0xFF 0xFF 0xFF 0xFF 0xFF 0xFF 0xFF 0xFF 0xFF 0xFF 0xFF 0xFF 0xFF 0xFF 0xFF 0xFF 0xFF 0xFF 0xFF 0xFF 0xFF 0xFF 0xFF 0xFF 0xFF 0xFF 0xFF 0xFF 0xFF 0xFF 0xFF 0xFF 0xFF 0xFF 0xFF 0xFF 0xFF 0xFF 0xFF 0xFF 0xFF 0xFF 0xFF 0xFF 0xFF 0xFF 0xFF 0xFF 0xFF 0xFF 0xFF 0xFF 0xFF 0xFF 0xFF 0xFF 0xFF 0xFF 0xAB 0xCD 0xEF 0x4A 0xA2 
write to 0x36 ack data: 0x20 0x00 0x80 0x05 0x56 0x33 0x2E 0x31 0x20 0x74 0x03 0xA4 0x04 0x90 0x20 0x0B 0x73 0x02 0x3D 0xCC 0x02 0x3E 0x0A 0x02 0x2E 0x68 0x02 0x30 0x0E 0x02 0x3D 0x92 0x02 0x3E 0x47 0x02 0x3E 0x52 0x02 0x3E 0x5B 0x02 0x3E 0x6C 0x02 0x3B 0x2A 0x02 0x3A 0x01 0x02 0x3E 0xD7 0x02 0x3E 0xEC 0x02 0x3D 0x45 0x02 0x3F 0x73 0x02 0x3F 0x2B 0x02 0x0C 0x46 
write to 0x36 ack data: 0x20 0x40 0x3F 0x35 0x02 0x27 0xB8 0x02 0x34 0x90 0x02 0x20 0xD8 0x02 0x37 0xAB 0x02 0x24 0x03 0x02 0x20 0xD9 0x02 0x21 0xB6 0x02 0x22 0xEA 0x02 0x20 0xD8 0x02 0x32 0x7A 0x02 0x24 0x8B 0x02 0x20 0xD8 0x02 0x20 0xD8 0x02 0x20 0xD8 0x02 0x20 0xD8 0x02 0x20 0xD8 0x02 0x20 0xD8 0x02 0x3E 0x7B 0x02 0x20 0xD8 0x02 0x20 0xD8 0x02 0x20 0xB1 0x9F 
write to 0x36 ack data: 0x20 0x80 0xD8 0x02 0x20 0xD8 0x02 0x3E 0x80 0x02 0x2E 0x67 0x02 0x2E 0xB6 0x02 0x2E 0xB7 0x02 0x38 0x82 0x02 0x2E 0x8F 0x02 0x2E 0xB8 0x02 0x2E 0xB9 0x02 0x34 0x69 0x02 0x20 0xD8 0x02 0x24 0x8B 0x02 0x33 0x5D 0x02 0x3D 0x89 0x02 0x32 0x36 0x02 0x3E 0x8F 0x02 0x3F 0x7A 0x02 0x3F 0x7B 0x02 0x27 0x44 0x02 0x33 0xD5 0x02 0x35 0xB2 0xB9 0x88 
write to 0x36 ack data: 0x20 0xC0 0x02 0x3C 0xA3 0x02 0x3C 0x88 0x02 0x3C 0x6D 0x02 0x34 0x22 0x02 0x36 0xD0 0x02 0x3F 0x3F 0x02 0x3B 0xA4 0x02 0x32 0x2B 0x22 0xC0 0x02 0xC0 0x03 0xC0 0x01 0x75 0x16 0x07 0x75 0x17 0xFF 0x90 0x42 0xDC 0xA3 0xE0 0xC4 0x03 0x54 0x07 0xF5 0x01 0x75 0xE1 0x00 0x75 0xE2 0x02 0x85 0x01 0x09 0x75 0x0B 0x10 0x43 0x0B 0x08 0x12 0xDC 0x51 
write to 0x36 ack data: 0x21 0x00 0x24 0x03 0x85 0x0D 0x02 0x85 0x0C 0x03 0xE5 0xE2 0x64 0x02 0x70 0x2C 0xE5 0x0C 0x54 0x80 0x70 0x13 0xC3 0xE5 0x0D 0x94 0x2C 0xE5 0x0C 0x94 0x01 0x40 0x1B 0x75 0xE1 0x00 0x75 0xE2 0x03 0x80 0xCF 0xC3 0xE5 0x0D 0x94 0xD4 0xE5 0x0C 0x94 0xFE 0x50 0x08 0x75 0xE1 0xC0 0x75 0xE2 0x00 0x80 0xBC 0x85 0x01 0x09 0x75 0x0B 0x10 0xB7 0xAD 
write to 0x36 ack data: 0x21 0x40 0x12 0x24 0x03 0xC3 0xE5 0x0D 0x95 0x02 0xF5 0x13 0xE5 0x0C 0x95 0x03 0xF5 0x12 0xC3 0x90 0x60 0x77 0xE0 0x95 0x13 0xF5 0x02 0x90 0x60 0x76 0xE0 0x95 0x12 0xF5 0x03 0x50 0x0D 0xC3 0xE5 0x02 0x34 0x02 0xE5 0x03 0x34 0x00 0x50 0x0F 0x80 0x3F 0xC3 0x74 0x02 0x95 0x02 0x74 0x00 0x95 0x03 0x40 0x02 0x80 0x32 0x90 0x60 0x77 0xE8 0xFB 
write to 0x36 ack data: 0x21 0x80 0xE5 0x13 0xF0 0x90 0x60 0x76 0xE5 0x12 0xF0 0x12 0x2C 0x6B 0xE5 0x0A 0x54 0x80 0x60 0x06 0x75 0x0B 0x00 0x75 0x0A 0x00 0xE5 0x0A 0x54 0x78 0x60 0x06 0x75 0x0A 0x07 0x75 0x0B 0xFF 0x8E 0x83 0x8F 0x82 0xE5 0x0A 0xF0 0xA3 0xE5 0x0B 0xF0 0xD0 0x01 0xD0 0x03 0xD0 0x02 0x22 0xC0 0x01 0x75 0x0B 0x00 0x90 0x60 0x6C 0xE0 0x60 0x4D 0x15 
write to 0x36 ack data: 0x21 0xC0 0x13 0x14 0x70 0x10 0x75 0x0B 0x01 0x90 0x42 0x1C 0xE0 0xF5 0x09 0xA3 0xE0 0xF5 0x08 0x02 0x21 0xE1 0x75 0x0B 0x00 0x90 0x42 0x1E 0xE0 0xF5 0x09 0xA3 0xE0 0xF5 0x08 0x85 0x0B 0x01 0x85 0x09 0x17 0x85 0x08 0x16 0x75 0xE1 0x00 0x75 0xE2 0x02 0x85 0x01 0x09 0x75 0x0B 0x20 0x43 0x0B 0x08 0x12 0x24 0x03 0xE5 0xE2 0x64 0x02 0x15 0x7D 
write to 0x36 ack data: 0x22 0x00 0x70 0x2C 0xE5 0x0C 0x54 0x80 0x70 0x13 0xC3 0xE5 0x0D 0x94 0x2C 0xE5 0x0C 0x94 0x01 0x40 0x1B 0x75 0xE1 0x00 0x75 0xE2 0x03 0x80 0xD5 0xC3 0xE5 0x0D 0x94 0xD4 0xE5 0x0C 0x94 0xFE 0x50 0x08 0x75 0xE1 0xC0 0x75 0xE2 0x00 0x80 0xC2 0xC0 0x0C 0xC0 0x0D 0x85 0x01 0x09 0x75 0x0B 0x20 0x12 0x24 0x03 0xC3 0xD0 0xE0 0x95 0x0D 0x68 0xCF 
write to 0x36 ack data: 0x22 0x40 0xF5 0x0B 0xF5 0x0F 0xD0 0xE0 0x95 0x0C 0xF5 0x0A 0xF5 0x0E 0xC3 0xE5 0x0E 0x33 0x40 0x0D 0xC3 0xE5 0x0F 0x94 0x8A 0xE5 0x0E 0x94 0x01 0x40 0x29 0x80 0x22 0xE5 0x0F 0xF4 0xF5 0x0F 0xE5 0x0E 0xF4 0xF5 0x0E 0xC3 0xE5 0x0F 0x34 0x01 0xF5 0x0F 0xE5 0x0E 0x34 0x00 0xF5 0x0E 0xC3 0x74 0x3B 0x95 0x0F 0x74 0x01 0x95 0x0E 0x50 0xBA 0x77 
write to 0x36 ack data: 0x22 0x80 0x05 0x75 0x09 0x02 0x80 0x03 0x75 0x09 0x01 0x90 0x60 0x6C 0xE5 0x09 0xF0 0xC3 0xE5 0x0A 0x13 0xF5 0x0A 0xE5 0x0B 0x13 0xF5 0x0B 0xE5 0x0B 0x54 0x02 0xF5 0x0D 0xC3 0xE5 0x0A 0x13 0xF5 0x0A 0xE5 0x0B 0x13 0xF5 0x0B 0xC3 0xE5 0x0A 0x13 0xF5 0x0A 0xE5 0x0B 0x13 0xF5 0x0B 0xE5 0x0D 0x60 0x0D 0xC3 0xE5 0x0B 0x34 0x01 0xF5 0xAA 0xEA 
write to 0x36 ack data: 0x22 0xC0 0x0B 0xE5 0x0A 0x34 0x00 0xF5 0x0A 0xE5 0x0B 0x54 0x80 0x70 0x0C 0xC3 0xE5 0x0B 0x94 0x69 0x40 0x11 0x75 0x0B 0x69 0x80 0x0C 0xE5 0x0B 0xC3 0xE5 0x0B 0x94 0xC4 0x50 0x03 0x75 0x0B 0xC4 0xAF 0x0B 0xD0 0x01 0x22 0xC0 0x00 0xC0 0x01 0xC0 0x02 0xC0 0x03 0x75 0xE1 0x00 0x75 0xE2 0x02 0x75 0x0B 0x40 0x43 0x0B 0x08 0x75 0x09 0xCF 0x31 
write to 0x36 ack data: 0x23 0x00 0x00 0x75 0x17 0xFF 0x75 0x16 0x07 0x12 0x24 0x03 0xE5 0xE2 0x64 0x02 0x70 0x2C 0xE5 0x0C 0x54 0x80 0x70 0x13 0xC3 0xE5 0x0D 0x94 0x2C 0xE5 0x0C 0x94 0x01 0x40 0x1B 0x75 0xE1 0x00 0x75 0xE2 0x03 0x80 0xCF 0xC3 0xE5 0x0D 0x94 0xD4 0xE5 0x0C 0x94 0xFE 0x50 0x08 0x75 0xE1 0xC0 0x75 0xE2 0x00 0x80 0xBC 0xC0 0x0C 0xC0 0x0D 0x58 0x7C 
write to 0x36 ack data: 0x23 0x40 0x75 0x0B 0x40 0x75 0x09 0x00 0x75 0x17 0xFF 0x75 0x16 0x07 0x12 0x24 0x03 0xC3 0xE5 0x0D 0xD0 0x0D 0x95 0x0D 0xF5 0x0D 0xE5 0x0C 0xD0 0x0C 0x95 0x0C 0xF5 0x0C 0x90 0x42 0xDE 0xE0 0xF5 0x00 0xA3 0xE0 0xF5 0x01 0xC3 0x74 0x4C 0x95 0x00 0x74 0x04 0x95 0x01 0x40 0x0A 0xE5 0x00 0x94 0x84 0xE5 0x01 0x94 0x03 0x50 0x06 0x75 0xD3 0xFA 
write to 0x36 ack data: 0x23 0x80 0x00 0x01 0x75 0x01 0x04 0xC3 0xE5 0x00 0x33 0xF5 0x02 0xE5 0x01 0x33 0xF5 0x03 0xC3 0xE5 0x00 0x35 0x02 0xF5 0x00 0xE5 0x01 0x35 0x03 0xF5 0x01 0x85 0x0D 0x0B 0x85 0x0C 0x0A 0x12 0x3B 0x2A 0x75 0x0C 0x00 0x75 0x0D 0x74 0x75 0x0E 0x00 0x75 0x0F 0x20 0x12 0x34 0x90 0xC0 0x0D 0xC0 0x0C 0xC0 0x0B 0xC0 0x0A 0xC3 0xE5 0x02 0xE5 0xC9 
write to 0x36 ack data: 0x23 0xC0 0xF4 0x34 0x01 0xF5 0x0B 0xE5 0x03 0xF4 0x34 0x01 0xF5 0x0A 0x12 0x3B 0x2A 0xD0 0x0E 0xD0 0x0F 0xD0 0x0C 0xD0 0x0D 0x12 0x34 0x90 0x85 0x0B 0x09 0x85 0x0A 0x08 0x85 0x0D 0x0B 0x85 0x0C 0x0A 0x12 0x3A 0x01 0xC3 0xE5 0x00 0x35 0x0B 0xF5 0x0B 0xE5 0x01 0x35 0x0A 0xF5 0x0A 0xD0 0x03 0xD0 0x02 0xD0 0x01 0xD0 0x00 0xAF 0x0B 0x2C 0x6A 
write to 0x36 ack data: 0x24 0x00 0xAE 0x0A 0x22 0xE5 0x09 0x25 0x0B 0xF5 0xD9 0x43 0x8D 0x01 0x75 0x98 0x00 0x75 0xA0 0x00 0x75 0xA6 0x00 0x75 0xA7 0x00 0x85 0x17 0xA4 0x85 0x16 0xA5 0x75 0x98 0x00 0x75 0xA0 0x00 0xE5 0x89 0x54 0x03 0xB4 0x02 0x1D 0xD2 0xC7 0x74 0x50 0xD5 0xE0 0xFD 0x43 0xE8 0x03 0x75 0x98 0x00 0x75 0xA0 0x00 0x43 0x87 0x01 0x00 0x00 0x1C 0xDA 
write to 0x36 ack data: 0x24 0x40 0x00 0x30 0x99 0xFD 0xC2 0xC7 0x80 0x26 0xD2 0xC5 0x00 0x00 0x00 0x00 0x00 0xD2 0xC6 0x00 0xD2 0xC7 0x00 0x43 0xE8 0x03 0x75 0x98 0x00 0x75 0xA0 0x00 0x43 0x87 0x01 0x00 0x00 0x00 0x30 0x99 0xFD 0xC2 0xC7 0x00 0xC2 0xC6 0xC2 0xC5 0xC2 0xE8 0xC2 0xE9 0x85 0xA6 0x0D 0x85 0xA7 0x0C 0x75 0x98 0x00 0x75 0xA0 0x00 0x75 0xD9 0x34 0x23 
write to 0x36 ack data: 0x24 0x80 0x00 0x75 0xDA 0x00 0x75 0xA6 0x00 0x75 0xA7 0x00 0x22 0xC0 0x00 0xC0 0x01 0xC0 0x02 0xC0 0x06 0xC0 0x03 0xC0 0x04 0xC0 0x05 0xC0 0x07 0xC0 0x8A 0xC0 0x89 0x85 0x0F 0x04 0x85 0x09 0x06 0x85 0x08 0x05 0x85 0x0D 0x03 0x85 0x0A 0x07 0x90 0x42 0x00 0xE0 0xF5 0xC8 0xA3 0xE0 0xF5 0xC9 0xA3 0xE0 0xF5 0xCA 0xA3 0xE0 0xF5 0xCB 0xC2 0xE1 
write to 0x36 ack data: 0x24 0xC0 0xE5 0x0B 0x54 0xE0 0x64 0x00 0x60 0x5A 0xE5 0x0B 0x54 0xE0 0x64 0x20 0x60 0x22 0xE5 0x0B 0x54 0xE0 0x64 0x40 0x60 0x26 0xE5 0x0B 0x54 0xE0 0x64 0x60 0x60 0x2A 0xE5 0x0B 0x54 0xE0 0x64 0x80 0x60 0x2E 0xE5 0x0B 0x54 0xE0 0x64 0xA0 0x60 0x3E 0x80 0x30 0xD2 0xF8 0xD2 0xFC 0xC2 0xFD 0xC2 0xFE 0xD2 0xC4 0x80 0x3C 0xD2 0xF8 0x74 0x0E 
write to 0x36 ack data: 0x25 0x00 0xD2 0xFC 0xD2 0xFD 0xC2 0xFE 0xD2 0xC4 0x80 0x30 0xC2 0xF8 0xD2 0xFC 0xC2 0xFD 0xC2 0xFE 0xD2 0xC4 0x80 0x24 0xC2 0xF8 0xD2 0xFC 0xD2 0xFD 0xC2 0xFE 0xD2 0xC4 0x80 0x18 0xC2 0xF8 0xC2 0xFC 0xC2 0xFD 0xC2 0xFE 0xD2 0xC4 0x80 0x0C 0xC2 0xF8 0xC2 0xFC 0xD2 0xFD 0xC2 0xFE 0xC2 0xC4 0x80 0x00 0x53 0xC8 0xF3 0xE5 0x03 0x54 0x8C 0xBF 
write to 0x36 ack data: 0x25 0x40 0xC0 0x24 0x80 0xC4 0x42 0xC8 0x74 0x03 0xC0 0xE0 0x80 0x00 0x12 0x26 0x06 0xD0 0xE0 0x85 0x07 0x8A 0xF5 0x89 0x53 0x03 0x3F 0xE5 0x04 0x64 0x40 0x70 0x14 0x43 0x87 0x04 0x43 0xD8 0x80 0x53 0xC8 0x8F 0x75 0xBF 0x20 0x75 0xBF 0x60 0x75 0x04 0x80 0x80 0x1B 0xE5 0x04 0x64 0x20 0x70 0x15 0x43 0x87 0x04 0x43 0xD8 0x80 0x53 0x80 0x3E 
write to 0x36 ack data: 0x25 0x80 0xC8 0x8F 0x43 0xC8 0x10 0x75 0xBF 0x20 0x75 0xBF 0x60 0x75 0x04 0x80 0xE5 0x06 0x60 0x27 0xA8 0x04 0x75 0x98 0x00 0x75 0xA0 0x00 0x43 0xF8 0x04 0x43 0xE9 0x01 0x88 0xBA 0x14 0xF5 0xB9 0x43 0xE9 0x02 0x43 0x87 0x01 0x00 0x00 0x00 0xE5 0xE9 0x30 0xE2 0xFB 0x75 0xE9 0x00 0x53 0xF8 0xFB 0x15 0x03 0x53 0x03 0x3F 0xE5 0x03 0xB2 0xA4 
write to 0x36 ack data: 0x25 0xC0 0x60 0x09 0xE5 0x05 0x00 0x00 0x14 0x70 0xFB 0x80 0xC3 0x53 0x87 0xFB 0x75 0x8A 0x02 0x53 0x89 0xFC 0x75 0x98 0x00 0x75 0xA0 0x00 0xD0 0xE0 0xC2 0xEC 0xC2 0xEB 0xC2 0xED 0x64 0x02 0x70 0x0D 0xD2 0xC5 0x00 0x00 0x00 0x00 0x00 0xD2 0xC6 0x00 0x75 0x89 0x02 0xD0 0x8A 0xD0 0x07 0xD0 0x05 0xD0 0x04 0xD0 0x03 0xD0 0x06 0xD0 0x44 0x8E 
write to 0x36 ack data: 0x26 0x00 0x02 0xD0 0x01 0xD0 0x00 0x22 0xC0 0x07 0x12 0x3D 0x89 0xE5 0x07 0xD0 0x07 0x43 0x8D 0x80 0xB4 0x01 0x64 0x53 0xF2 0x7F 0x43 0xF6 0x02 0xD2 0xDE 0xE5 0x0B 0x54 0x08 0x60 0x2B 0x43 0xC9 0x10 0xE5 0x0B 0x54 0x04 0x60 0x11 0xD2 0xEE 0x53 0xC9 0x9F 0x43 0xC9 0x60 0x53 0xCB 0x41 0x43 0xCB 0x08 0x02 0x27 0x14 0xC2 0xEE 0x53 0xBD 0x2F 
write to 0x36 ack data: 0x26 0x40 0xC9 0x9F 0x43 0xC9 0x40 0x53 0xCB 0x41 0x43 0xCB 0x10 0x02 0x27 0x14 0x53 0xC9 0xEF 0xE5 0x0B 0x54 0x04 0x60 0x11 0xD2 0xEE 0x53 0xC9 0x9F 0x43 0xC9 0x40 0x53 0xCB 0x41 0x43 0xCB 0x08 0x02 0x27 0x14 0xC2 0xEE 0x53 0xC9 0x9F 0x43 0xC9 0x20 0x53 0xCB 0x41 0x43 0xCB 0x10 0x02 0x27 0x14 0xB4 0x02 0x5C 0x43 0xF2 0x80 0xE5 0x29 0x6D 
write to 0x36 ack data: 0x26 0x80 0x0B 0x54 0x08 0x60 0x28 0xC2 0xDE 0x43 0xC9 0x10 0xE5 0x0B 0x54 0x04 0x60 0x10 0xD2 0xEE 0x53 0xC9 0x9F 0x43 0xC9 0x20 0x53 0xCB 0x41 0x43 0xCB 0x10 0x80 0x74 0xC2 0xEE 0x53 0xC9 0x9F 0x53 0xCB 0x41 0x43 0xCB 0x20 0x80 0x67 0xD2 0xDE 0x53 0xC9 0xEF 0xE5 0x0B 0x54 0x04 0x60 0x10 0xD2 0xEE 0x53 0xC9 0x9F 0x43 0xC9 0x60 0x10 0x10 
write to 0x36 ack data: 0x26 0xC0 0x53 0xCB 0x41 0x43 0xCB 0x08 0x80 0x4C 0xC2 0xEE 0x53 0xC9 0x9F 0x43 0xC9 0x40 0x53 0xCB 0x41 0x43 0xCB 0x10 0x80 0x3C 0x53 0xF2 0x7F 0x53 0xF6 0xFD 0xD2 0xDE 0xE5 0x0B 0x54 0x08 0x60 0x05 0x43 0xC9 0x10 0x80 0x03 0x53 0xC9 0xEF 0xE5 0x0B 0x54 0x04 0x60 0x10 0xD2 0xEE 0x53 0xC9 0x9F 0x43 0xC9 0x40 0x53 0xCB 0x41 0x43 0x2C 0xE1 
write to 0x36 ack data: 0x27 0x00 0xCB 0x08 0x80 0x10 0xC2 0xEE 0x53 0xC9 0x9F 0x43 0xC9 0x20 0x53 0xCB 0x41 0x43 0xCB 0x10 0x80 0x00 0x53 0x8D 0x7F 0x53 0xC8 0x8C 0x43 0xC8 0x02 0x75 0x89 0x00 0x00 0xC2 0xC6 0xC2 0xC5 0xD2 0xED 0x12 0x3D 0x8C 0xD2 0xEB 0x43 0xCA 0x01 0xD2 0xEC 0xE5 0xCB 0x54 0x3E 0x03 0x00 0x00 0x00 0x00 0x00 0x00 0x00 0x14 0x70 0xF6 0x32 0x58 
write to 0x36 ack data: 0x27 0x40 0x53 0xCA 0xFE 0x22 0xC0 0x8A 0xC0 0x89 0x90 0x42 0x00 0xE0 0xF5 0xC8 0xA3 0xE0 0xF5 0xC9 0xA3 0xE0 0xF5 0xCA 0xA3 0xE0 0xF5 0xCB 0xC2 0xF8 0xC2 0xFC 0xC2 0xFD 0xC2 0xFE 0xD2 0xC4 0x8F 0x0B 0x12 0x26 0x06 0x53 0xC8 0xF3 0xEA 0x54 0xC0 0x24 0x80 0xC4 0x42 0xC8 0x8B 0x8A 0x75 0x89 0x03 0x75 0xB9 0xAA 0x75 0xBA 0xAA 0x75 0xD3 0xA0 
write to 0x36 ack data: 0x27 0x80 0xBB 0xFF 0x75 0xBC 0xBF 0xC3 0xED 0x94 0x01 0xFD 0xEC 0x94 0x00 0xFC 0x50 0xE9 0x53 0x87 0xFB 0xC2 0xEC 0x53 0x89 0xFC 0xC2 0xEB 0xC2 0xED 0xD0 0xE0 0x64 0x02 0x70 0x0D 0xD2 0xC5 0x00 0x00 0x00 0x00 0x00 0xD2 0xC6 0x00 0x75 0x89 0x02 0xD0 0x8A 0x75 0x98 0x00 0x75 0xA0 0x00 0x22 0xC0 0x00 0xC0 0x01 0xC0 0x02 0xC0 0x03 0xEB 0x77 
write to 0x36 ack data: 0x27 0xC0 0xC0 0x04 0xC0 0x05 0xC0 0x06 0xC0 0x07 0xC0 0x16 0xC0 0x17 0xE5 0x09 0xF5 0x00 0xE5 0x08 0xF5 0x01 0xE5 0x0B 0xF5 0x02 0xE5 0x0A 0xF5 0x03 0xE5 0x0D 0xF5 0x04 0xE5 0x0C 0xF5 0x05 0xE5 0x0F 0xF5 0x06 0xE5 0x0E 0xF5 0x07 0xE5 0x00 0xF5 0x0B 0x75 0x0A 0x00 0xE5 0x04 0xF5 0x0D 0x75 0x0C 0x00 0xE5 0x0D 0xF5 0x0F 0xE5 0x0C 0x98 0xFF 
write to 0x36 ack data: 0x28 0x00 0xF5 0x0E 0xC3 0xE5 0x0B 0x95 0x0D 0xF5 0x0D 0x50 0x6A 0xE5 0x0F 0xF5 0x0B 0xE5 0x0E 0xF5 0x0A 0xC3 0xE5 0x0D 0xF4 0x34 0x01 0xF5 0x0D 0xE5 0x0C 0xF4 0x34 0x00 0xF5 0x0C 0xE5 0x0F 0xF5 0x0B 0xE5 0x0E 0xF5 0x0A 0xE5 0x06 0xF5 0x09 0xE5 0x07 0xF5 0x08 0xE5 0x0D 0x94 0x0F 0x40 0x03 0x02 0x2A 0x1C 0xE5 0x02 0xF5 0x09 0xE5 0x00 0x7D 
write to 0x36 ack data: 0x28 0x40 0x03 0xF5 0x08 0xD3 0xE5 0x08 0x13 0xF5 0x08 0xE5 0x09 0x13 0xF5 0x09 0xE5 0x06 0xF5 0x0F 0xE5 0x07 0xF5 0x0E 0xD3 0xE5 0x0E 0x13 0xF5 0x0E 0xE5 0x0F 0x13 0xF5 0x0F 0xC3 0xE5 0x08 0x13 0xF5 0x08 0xE5 0x09 0x13 0xF5 0x09 0x15 0x0D 0xE5 0x0D 0x70 0xEF 0x02 0x28 0xF9 0xE5 0x0D 0x70 0x03 0x02 0x28 0xC8 0xE5 0x02 0xF5 0x09 0x5B 0x08 
write to 0x36 ack data: 0x28 0x80 0xE5 0x03 0xF5 0x08 0xC3 0xE5 0x0D 0x94 0x0F 0x40 0x03 0x02 0x2A 0x27 0xE5 0x02 0xF5 0x09 0xE5 0x03 0xF5 0x08 0xD3 0xE5 0x08 0x13 0xF5 0x08 0xE5 0x09 0x13 0xF5 0x09 0xE5 0x06 0xF5 0x0F 0xE5 0x07 0xF5 0x0E 0xD3 0xE5 0x0E 0x13 0xF5 0x0E 0xE5 0x0F 0x13 0xF5 0x0F 0xC3 0xE5 0x0E 0x13 0xF5 0x0E 0xE5 0x0F 0x13 0xF5 0x0F 0x15 0x8C 0x3B 
write to 0x36 ack data: 0x28 0xC0 0x0D 0xE5 0x0D 0x70 0xEF 0x02 0x28 0xF9 0xE5 0x0B 0x70 0x07 0xE5 0x0B 0xF5 0x09 0x02 0x2A 0x2F 0xE5 0x02 0xF5 0x09 0xE5 0x03 0xF5 0x08 0xE5 0x06 0xF5 0x0F 0xE5 0x07 0xF5 0x0E 0xD3 0xE5 0x0E 0x13 0xF5 0x0E 0xE5 0x0F 0x13 0xF5 0x0F 0xD3 0xE5 0x08 0x13 0xF5 0x08 0xE5 0x09 0x13 0xF5 0x09 0xC3 0x05 0x0B 0xE5 0x0B 0xF5 0x16 0x13 0xDB 
write to 0x36 ack data: 0x29 0x00 0xE5 0x0A 0xF5 0x17 0x75 0x0B 0x00 0xE5 0x00 0xF5 0x0D 0xE5 0x01 0xF5 0x0C 0xC3 0xE5 0x0D 0x33 0xF5 0x0D 0xE5 0x0C 0x33 0xF5 0x0C 0x50 0x02 0x05 0x0B 0xE5 0x04 0xF5 0x0D 0xE5 0x05 0xF5 0x0C 0xC3 0xE5 0x0D 0x33 0xF5 0x0D 0xE5 0x0C 0x33 0xF5 0x0C 0x50 0x02 0x05 0x0B 0x15 0x0B 0xE5 0x0B 0x70 0x6D 0xE5 0x00 0xF5 0x0D 0xE5 0xDD 0x20 
write to 0x36 ack data: 0x29 0x40 0x01 0xF5 0x0C 0xC3 0xE5 0x0C 0x33 0x50 0x0F 0xC3 0xE5 0x09 0xF4 0x34 0x01 0xF5 0x09 0xE5 0x08 0xF4 0x34 0x00 0xF5 0x08 0xE5 0x04 0xF5 0x0D 0xE5 0x05 0xF5 0x0C 0xC3 0x33 0x50 0x0F 0xC3 0xE5 0x0F 0xF4 0x34 0x01 0xF5 0x0F 0xE5 0x0E 0xF4 0x34 0x00 0xF5 0x0E 0x75 0x0D 0x00 0x75 0x0C 0x00 0xE5 0x16 0xF5 0x0B 0xE5 0x17 0xF5 0x30 0x57 
write to 0x36 ack data: 0x29 0x80 0x0A 0xC3 0xE5 0x0F 0x35 0x09 0xF5 0x09 0xE5 0x0E 0x35 0x08 0xF5 0x08 0x40 0x61 0x75 0x0D 0x00 0x75 0x0C 0x80 0xC3 0xE5 0x09 0xF4 0x34 0x01 0xF5 0x09 0xE5 0x08 0xF4 0x34 0x00 0xF5 0x08 0x02 0x29 0xF1 0x75 0x0D 0x00 0x75 0x0C 0x00 0xC3 0xE5 0x01 0x33 0x50 0x26 0x75 0x0D 0x00 0x75 0x0C 0x80 0xE5 0x16 0xF5 0x0B 0xE5 0x17 0x79 0xB1 
write to 0x36 ack data: 0x29 0xC0 0xF5 0x0A 0xC3 0xE5 0x0F 0x35 0x09 0xF5 0x09 0xE5 0x0E 0x35 0x08 0xF5 0x08 0x50 0x20 0xE5 0x0A 0x45 0x0C 0xF5 0x0A 0x02 0x2A 0x2F 0xE5 0x16 0xF5 0x0B 0xE5 0x17 0xF5 0x0A 0xC3 0xE5 0x0F 0x35 0x09 0xF5 0x09 0xE5 0x0E 0x35 0x08 0xF5 0x08 0x40 0x3E 0xE5 0x09 0x70 0x0D 0xE5 0x08 0x70 0x09 0x75 0x0B 0x00 0x75 0x0A 0x00 0x02 0xF8 0x7E 
write to 0x36 ack data: 0x2A 0x00 0x2A 0x2F 0x15 0x0B 0xC3 0xE5 0x09 0x33 0xF5 0x09 0xE5 0x08 0x33 0xF5 0x08 0x50 0xF1 0xE5 0x0D 0x42 0x0B 0xE5 0x0C 0x42 0x0A 0x02 0x2A 0x2F 0xE5 0x04 0xF5 0x0B 0xE5 0x05 0xF5 0x0A 0x02 0x2A 0x2F 0xE5 0x00 0xF5 0x0B 0xE5 0x01 0xF5 0x0A 0xD0 0x17 0xD0 0x16 0xD0 0x07 0xD0 0x06 0xD0 0x05 0xD0 0x04 0xD0 0x03 0xD0 0x02 0xD0 0x8D 0x43 
write to 0x36 ack data: 0x2A 0x40 0x01 0xD0 0x00 0x22 0x78 0x0D 0xE4 0xF6 0x08 0xF6 0x08 0xF6 0x12 0x39 0x50 0x90 0x60 0x62 0xE0 0xFE 0xA3 0xE0 0xFF 0xC3 0x95 0x11 0xE5 0x10 0x64 0x80 0xF8 0xEE 0x64 0x80 0x98 0x50 0x17 0x90 0x60 0x61 0xE0 0x95 0x11 0xE5 0x10 0x64 0x80 0xF8 0x90 0x60 0x60 0xE0 0x64 0x80 0x98 0x40 0x03 0x02 0x2C 0x6A 0xD3 0xEF 0x95 0x11 0xDE 0x51 
write to 0x36 ack data: 0x2A 0x80 0xE5 0x10 0x64 0x80 0xF8 0xEE 0x64 0x80 0x98 0x50 0x03 0x02 0x2B 0x7D 0x78 0x0D 0x76 0x08 0x12 0x39 0x46 0x78 0x0E 0xE6 0xFE 0x08 0xE6 0xFF 0xEE 0x54 0x01 0xFE 0xEF 0x54 0xF0 0xFF 0xBE 0x01 0x1B 0xBF 0xF0 0x18 0xD3 0x90 0x60 0x63 0xE0 0x95 0x11 0xE5 0x10 0x64 0x80 0xF8 0x90 0x60 0x62 0xE0 0x64 0x80 0x98 0x40 0x03 0x02 0xE2 0x7C 
write to 0x36 ack data: 0x2A 0xC0 0x2C 0x6A 0x90 0x60 0x60 0xE0 0xFE 0xA3 0xE0 0xFF 0xC3 0x95 0x11 0xE5 0x10 0x64 0x80 0xF8 0xEE 0x64 0x80 0x98 0x40 0x17 0x90 0x60 0x63 0xE0 0x95 0x11 0xE5 0x10 0x64 0x80 0xF8 0x90 0x60 0x62 0xE0 0x64 0x80 0x98 0x50 0x03 0x02 0x2C 0x6A 0xC3 0xEF 0x95 0x11 0xE5 0x10 0x64 0x80 0xF8 0xEE 0x64 0x80 0x98 0x50 0x64 0x78 0x0F 0x37 0xC5 
write to 0x36 ack data: 0x2B 0x00 0x06 0xE6 0x18 0x70 0x01 0x06 0x12 0x39 0x50 0x78 0x0E 0x08 0xE6 0x54 0x0F 0x64 0x0F 0x70 0x18 0xC3 0x90 0x60 0x61 0xE0 0x95 0x11 0xE5 0x10 0x64 0x80 0xF8 0x90 0x60 0x60 0xE0 0x64 0x80 0x98 0x50 0x03 0x02 0x2C 0x6A 0xC3 0x90 0x60 0x61 0xE0 0x95 0x11 0xE5 0x10 0x64 0x80 0xF8 0x90 0x60 0x60 0xE0 0x64 0x80 0x98 0x40 0x03 0xC5 0x47 
write to 0x36 ack data: 0x2B 0x40 0x02 0x2C 0x6A 0x78 0x0E 0x08 0xE6 0x54 0x0F 0x64 0x0F 0x70 0xB1 0x18 0xC0 0x00 0xE6 0xFE 0x08 0xE6 0xFF 0xEE 0x54 0x01 0xFE 0xEF 0x54 0xF0 0xD0 0x00 0xA6 0x06 0x08 0xF6 0x78 0x0E 0xE6 0xFE 0x08 0xE6 0xFF 0xEE 0x54 0x01 0xFE 0xEF 0x54 0xF0 0x64 0xF0 0x70 0x03 0xEE 0x64 0x01 0x60 0x03 0x02 0x2A 0x92 0x22 0x78 0x0D 0xE4 0xB6 0xB5 
write to 0x36 ack data: 0x2B 0x80 0xF6 0x12 0x39 0x46 0x78 0x0E 0xE6 0xFE 0x08 0xE6 0xFF 0xEE 0x54 0x01 0xFE 0xEF 0x54 0xF0 0xFF 0xBE 0x01 0x1B 0xBF 0xF0 0x18 0xC3 0x90 0x60 0x61 0xE0 0x95 0x11 0xE5 0x10 0x64 0x80 0xF8 0x90 0x60 0x60 0xE0 0x64 0x80 0x98 0x50 0x03 0x02 0x2C 0x6A 0xC3 0x90 0x60 0x61 0xE0 0x95 0x11 0xE5 0x10 0x64 0x80 0xF8 0x90 0x60 0x60 0x13 0x9B 
write to 0x36 ack data: 0x2B 0xC0 0xE0 0x64 0x80 0x98 0x40 0x17 0x90 0x60 0x63 0xE0 0x95 0x11 0xE5 0x10 0x64 0x80 0xF8 0x90 0x60 0x62 0xE0 0x64 0x80 0x98 0x50 0x03 0x02 0x2C 0x6A 0xD3 0x90 0x60 0x63 0xE0 0x95 0x11 0xE5 0x10 0x64 0x80 0xF8 0x90 0x60 0x62 0xE0 0x64 0x80 0x98 0x40 0x5E 0x78 0x0F 0x06 0xE6 0x18 0x70 0x01 0x06 0x12 0x39 0x50 0x78 0x0E 0x08 0xA8 0x0C 
write to 0x36 ack data: 0x2C 0x00 0xE6 0x54 0x0F 0x64 0x0F 0x70 0x15 0xD3 0x90 0x60 0x63 0xE0 0x95 0x11 0xE5 0x10 0x64 0x80 0xF8 0x90 0x60 0x62 0xE0 0x64 0x80 0x98 0x50 0x4E 0xD3 0x90 0x60 0x63 0xE0 0x95 0x11 0xE5 0x10 0x64 0x80 0xF8 0x90 0x60 0x62 0xE0 0x64 0x80 0x98 0x40 0x39 0x78 0x0E 0x08 0xE6 0x54 0x0F 0x64 0x0F 0x70 0xB7 0x18 0xC0 0x00 0xE6 0xFE 0xEB 0x38 
write to 0x36 ack data: 0x2C 0x40 0x08 0xE6 0xFF 0xEE 0x54 0x01 0xFE 0xEF 0x54 0xF0 0xD0 0x00 0xA6 0x06 0x08 0xF6 0x78 0x0E 0xE6 0xFE 0x08 0xE6 0xFF 0xEE 0x54 0x01 0xFE 0xEF 0x54 0xF0 0x64 0xF0 0x70 0x03 0xEE 0x64 0x01 0x60 0x03 0x02 0x2B 0x81 0x22 0xC0 0x00 0xC0 0x01 0xC0 0x02 0xC0 0x03 0xC0 0x04 0xC0 0x05 0xC0 0x06 0xC0 0x07 0xC0 0x10 0xC0 0x11 0xC0 0xF4 0xCF 
write to 0x36 ack data: 0x2C 0x80 0x16 0xC0 0x17 0x90 0x42 0xD8 0xE0 0xF5 0x0F 0x75 0x0E 0x00 0xC3 0x90 0x60 0x78 0xE0 0x95 0x0F 0xF5 0x0B 0x75 0x0A 0x00 0xE5 0x0B 0x54 0x80 0x60 0x03 0x75 0x0A 0xFF 0x12 0x3B 0x2A 0xE5 0x0B 0xF5 0x00 0xE5 0x0A 0xF5 0x01 0xE5 0x09 0xF5 0x02 0xE5 0x08 0xF5 0x03 0x90 0x42 0xC0 0xE0 0xF5 0x0D 0xA3 0xE0 0xF5 0x0C 0x90 0x42 0xAE 0x95 
write to 0x36 ack data: 0x2C 0xC0 0xC2 0xE0 0xF5 0x0F 0xA3 0xE0 0xF5 0x0E 0x12 0x34 0x90 0xE5 0x0D 0xF5 0x09 0xE5 0x0C 0xF5 0x08 0x90 0x42 0xCC 0xE0 0xF5 0x0D 0xA3 0xE0 0xF5 0x0C 0x90 0x42 0xCE 0xE0 0xF5 0x0F 0xA3 0xE0 0xF5 0x0E 0x12 0x27 0xB8 0xE5 0x0B 0xF5 0x06 0xE5 0x0A 0xF5 0x07 0xE5 0x09 0xF5 0x04 0xE5 0x08 0xF5 0x05 0xE5 0x13 0xF5 0x0B 0xE5 0x12 0x4C 0xEE 
write to 0x36 ack data: 0x2D 0x00 0xF5 0x0A 0x12 0x3B 0x2A 0xE5 0x09 0xF5 0x0D 0xE5 0x08 0xF5 0x0C 0xE5 0x0B 0xF5 0x0F 0xE5 0x0A 0xF5 0x0E 0x12 0x34 0x90 0xE5 0x0D 0xF5 0x09 0xE5 0x0C 0xF5 0x08 0xE5 0x06 0xF5 0x0D 0xE5 0x07 0xF5 0x0C 0xE5 0x04 0xF5 0x0F 0xE5 0x05 0xF5 0x0E 0x12 0x34 0x90 0xE5 0x0D 0xF5 0x16 0xE5 0x0C 0xF5 0x17 0xE5 0x0B 0xF5 0x10 0xE5 0xD1 0x11 
write to 0x36 ack data: 0x2D 0x40 0x0A 0xF5 0x11 0xE5 0x02 0xF5 0x09 0xE5 0x03 0xF5 0x08 0xE5 0x00 0xF5 0x0B 0xE5 0x01 0xF5 0x0A 0x90 0x42 0xC4 0xE0 0xF5 0x0D 0xA3 0xE0 0xF5 0x0C 0x90 0x42 0xC6 0xE0 0xF5 0x0F 0xA3 0xE0 0xF5 0x0E 0x12 0x34 0x90 0xE5 0x0D 0xF5 0x09 0xE5 0x0C 0xF5 0x08 0x90 0x42 0xD0 0xE0 0xF5 0x0D 0xA3 0xE0 0xF5 0x0C 0x90 0x42 0xD2 0xE0 0x08 0x1F 
write to 0x36 ack data: 0x2D 0x80 0xF5 0x0F 0xA3 0xE0 0xF5 0x0E 0x12 0x27 0xB8 0xE5 0x0B 0xF5 0x06 0xE5 0x0A 0xF5 0x07 0xE5 0x09 0xF5 0x04 0xE5 0x08 0xF5 0x05 0xE5 0x13 0xF5 0x0B 0xE5 0x12 0xF5 0x0A 0x12 0x3B 0x2A 0xE5 0x06 0xF5 0x0D 0xE5 0x07 0xF5 0x0C 0xE5 0x04 0xF5 0x0F 0xE5 0x05 0xF5 0x0E 0x12 0x34 0x90 0xE5 0x0D 0xF5 0x09 0xE5 0x0C 0xF5 0x08 0xE5 0x52 0xAF 
write to 0x36 ack data: 0x2D 0xC0 0x16 0xF5 0x0D 0xE5 0x17 0xF5 0x0C 0xE5 0x10 0xF5 0x0F 0xE5 0x11 0xF5 0x0E 0x12 0x27 0xB8 0xE5 0x0B 0xF5 0x16 0xE5 0x0A 0xF5 0x17 0xE5 0x09 0xF5 0x10 0xE5 0x08 0xF5 0x11 0xE5 0x02 0xF5 0x09 0xE5 0x03 0xF5 0x08 0xE5 0x00 0xF5 0x0B 0xE5 0x01 0xF5 0x0A 0x90 0x42 0xC8 0xE0 0xF5 0x0D 0xA3 0xE0 0xF5 0x0C 0x90 0x42 0xCA 0xE0 0xB3 0x0D 
write to 0x36 ack data: 0x2E 0x00 0xF5 0x0F 0xA3 0xE0 0xF5 0x0E 0x12 0x34 0x90 0xE5 0x0D 0xF5 0x09 0xE5 0x0C 0xF5 0x08 0x90 0x42 0xD4 0xE0 0xF5 0x0D 0xA3 0xE0 0xF5 0x0C 0x90 0x42 0xD6 0xE0 0xF5 0x0F 0xA3 0xE0 0xF5 0x0E 0x12 0x27 0xB8 0xE5 0x0B 0xF5 0x0D 0xE5 0x0A 0xF5 0x0C 0xE5 0x09 0xF5 0x0F 0xE5 0x08 0xF5 0x0E 0xE5 0x16 0xF5 0x09 0xE5 0x17 0xF5 0x08 0x21 0x0A 
write to 0x36 ack data: 0x2E 0x40 0xE5 0x10 0xF5 0x0B 0xE5 0x11 0xF5 0x0A 0x12 0x27 0xB8 0x12 0x3A 0x01 0xD0 0x17 0xD0 0x16 0xD0 0x11 0xD0 0x10 0xD0 0x07 0xD0 0x06 0xD0 0x05 0xD0 0x04 0xD0 0x03 0xD0 0x02 0xD0 0x01 0xD0 0x00 0x22 0x22 0x12 0x3D 0x89 0xBF 0x01 0x0A 0x74 0x05 0xF5 0x09 0x74 0x4D 0xF5 0x08 0x80 0x42 0xBF 0x02 0x0A 0x74 0x03 0xF5 0x09 0x74 0xE1 0xF3 
write to 0x36 ack data: 0x2E 0x80 0x48 0xF5 0x08 0x80 0x35 0x74 0x04 0xF5 0x09 0x74 0x4C 0xF5 0x08 0x80 0x2B 0x12 0x3D 0x89 0xBF 0x01 0x0A 0x74 0x15 0xF5 0x09 0x74 0xB4 0xF5 0x08 0x80 0x1B 0xBF 0x02 0x0A 0x74 0x0D 0xF5 0x09 0x74 0xA0 0xF5 0x08 0x80 0x0E 0x74 0x13 0xF5 0x09 0x74 0xB0 0xF5 0x08 0x80 0x04 0x22 0x22 0x22 0x22 0xC0 0x07 0xC0 0x06 0xC0 0x05 0x48 0xFC 
write to 0x36 ack data: 0x2E 0xC0 0xC0 0x04 0xC0 0x01 0xC0 0x02 0xC0 0x03 0xC0 0x89 0xE5 0x08 0x54 0x3F 0xF5 0x0C 0x85 0x09 0x0D 0xE5 0x08 0x54 0xC0 0x64 0x80 0x60 0x0D 0xE5 0x08 0x54 0xC0 0x64 0x00 0x60 0x0A 0x75 0x06 0x04 0x80 0x08 0x75 0x06 0x20 0x80 0x03 0x75 0x06 0x00 0x74 0x80 0x55 0x08 0x60 0x0B 0xC3 0xE5 0x0D 0x33 0xF5 0x0D 0xE5 0x0C 0x33 0xF5 0x83 0x64 
write to 0x36 ack data: 0x2F 0x00 0x0C 0x85 0x0D 0x05 0x85 0x0C 0x04 0x12 0x3D 0x92 0x75 0xB1 0x10 0xE5 0x06 0x64 0x20 0x60 0x23 0xE5 0x05 0x64 0x04 0x60 0x12 0xE5 0x05 0x64 0x05 0x60 0x0C 0xE5 0x05 0x64 0x03 0x60 0x06 0x75 0x05 0x04 0x75 0x06 0x04 0x75 0x01 0x0A 0x90 0x60 0x79 0xE0 0xF5 0x09 0x80 0x0B 0x75 0x01 0x50 0x90 0x60 0x6F 0xE0 0xF5 0x09 0x80 0x9C 0x7E 
write to 0x36 ack data: 0x2F 0x40 0x00 0x75 0x08 0x00 0x75 0x07 0x00 0x53 0xA2 0xDB 0x85 0x06 0xA2 0x75 0x89 0x00 0x00 0xC2 0xC6 0xC2 0xC5 0xE5 0x06 0x64 0x20 0x70 0x0B 0x43 0x8D 0x80 0x85 0x09 0xF1 0x53 0x8D 0x7F 0x80 0x03 0x85 0x09 0xA1 0x75 0xA4 0x0A 0x75 0xA5 0x00 0x75 0xA6 0x00 0x75 0xA7 0x00 0x75 0x98 0x00 0x75 0xA0 0x00 0x43 0xE8 0x03 0xE5 0x98 0x94 0x94 
write to 0x36 ack data: 0x2F 0x80 0x54 0x02 0x60 0xFA 0x53 0xE8 0xFC 0xC3 0xE5 0xA6 0x95 0x05 0xFB 0xE5 0xA7 0x95 0x04 0xFA 0x50 0x16 0xC3 0xEB 0xF4 0x34 0x01 0xFB 0xEA 0xF4 0x34 0x00 0xFA 0xC3 0xEB 0x95 0x01 0xEA 0x94 0x00 0x40 0x1F 0x80 0x0B 0xC3 0xEB 0x95 0x01 0xEA 0x94 0x00 0x40 0x14 0x80 0x05 0xC3 0x15 0x09 0x80 0x03 0xC3 0x05 0x09 0x05 0x07 0xE5 0xC5 0x1A 
write to 0x36 ack data: 0x2F 0xC0 0x07 0x64 0xFF 0x60 0x07 0x80 0x8E 0x75 0x0B 0x01 0x80 0x03 0x75 0x0B 0x00 0x53 0xA2 0xDB 0x43 0xA2 0x04 0x75 0xC8 0x00 0x75 0xC9 0x00 0xC2 0xED 0xD0 0xE0 0x64 0x02 0x70 0x0D 0xD2 0xC5 0x00 0x00 0x00 0x00 0x00 0xD2 0xC6 0x00 0x75 0x89 0x02 0x75 0xA6 0x00 0x75 0xA7 0x00 0x75 0x98 0x00 0x75 0xA0 0x00 0x75 0xB1 0x00 0xD0 0xA5 0x0F 
write to 0x36 ack data: 0x30 0x00 0x03 0xD0 0x02 0xD0 0x01 0xD0 0x04 0xD0 0x05 0xD0 0x06 0xD0 0x07 0x22 0x12 0x3D 0x89 0xBF 0x01 0x0A 0x74 0x15 0xF5 0x09 0x74 0xB4 0xF5 0x08 0x80 0x15 0xBF 0x02 0x0A 0x74 0x0D 0xF5 0x09 0x74 0xA0 0xF5 0x08 0x80 0x08 0x74 0x13 0xF5 0x09 0x74 0xB0 0xF5 0x08 0xC0 0x07 0xC0 0x06 0xC0 0x05 0xC0 0x04 0xC0 0x02 0xC0 0x03 0xC0 0x2D 0xDB 
write to 0x36 ack data: 0x30 0x40 0x89 0x74 0xC0 0x55 0x08 0xF5 0x0C 0xF5 0x0A 0xC3 0x13 0xC3 0x13 0xC3 0x13 0xC3 0x13 0xF5 0x0C 0xE5 0x0A 0xC3 0x13 0xC3 0x13 0x42 0x0C 0xE5 0x0C 0xF5 0x0A 0x53 0x0A 0x24 0x75 0x0B 0x00 0x75 0x0F 0x31 0x75 0x0E 0x00 0x74 0x03 0x55 0x0E 0x45 0x0A 0xF5 0x06 0x85 0x0B 0x07 0xE5 0x09 0x54 0xFF 0xF5 0x0D 0xE5 0x08 0x54 0x3F 0xDC 0x0E 
write to 0x36 ack data: 0x30 0x80 0xF5 0x0C 0xE5 0x0D 0x70 0x0C 0xE5 0x0C 0x70 0x08 0xF5 0x09 0x75 0x08 0x00 0x02 0x31 0x73 0x74 0x80 0x55 0x08 0x60 0x0B 0xC3 0xE5 0x0D 0x33 0xF5 0x0D 0xE5 0x0C 0x33 0xF5 0x0C 0x85 0x0D 0x05 0x85 0x0C 0x04 0x12 0x3D 0x92 0x75 0x0B 0x4A 0x75 0x0A 0x70 0x74 0x80 0xF4 0x52 0x0B 0x74 0x01 0xF4 0x52 0x0A 0x43 0x0B 0x02 0xE5 0x57 0xDD 
write to 0x36 ack data: 0x30 0xC0 0x0B 0x54 0x8F 0xF5 0xC8 0xE5 0x0A 0xF5 0xC9 0x75 0xB1 0x10 0x75 0x09 0x00 0x75 0x08 0x00 0x75 0x0B 0x80 0x75 0x0A 0x00 0x85 0x06 0xA2 0x75 0x89 0x00 0x00 0xC2 0xC6 0xC2 0xC5 0xE5 0x07 0x45 0x09 0x43 0x8D 0x80 0xF5 0xF1 0x53 0x8D 0x7F 0xE5 0x06 0x45 0x08 0xF5 0xA2 0xC3 0xE5 0x0B 0x13 0xF5 0x0B 0x75 0xC8 0x02 0x75 0x0D 0xC9 0xD1 
write to 0x36 ack data: 0x31 0x00 0x14 0xE5 0x0D 0x14 0xF5 0x0D 0x70 0xF9 0x75 0xA4 0x0A 0x75 0xA5 0x00 0x75 0xA6 0x00 0x75 0xA7 0x00 0x75 0x98 0x00 0x75 0xA0 0x00 0x43 0xE8 0x03 0xE5 0x98 0x54 0x02 0x60 0xFA 0x53 0xE8 0xFC 0xC3 0xE5 0xA6 0x95 0x05 0xFB 0xE5 0xA7 0x95 0x04 0xFA 0x50 0x16 0xC3 0xEB 0xF4 0x34 0x01 0xFB 0xEA 0xF4 0x34 0x00 0xFA 0xC3 0xEB 0x39 0xFA 
write to 0x36 ack data: 0x31 0x40 0x94 0x0A 0xEA 0x94 0x00 0x40 0x24 0x80 0x0B 0xC3 0xEB 0x94 0x0A 0xEA 0x94 0x00 0x40 0x19 0x80 0x09 0xC3 0xE5 0x09 0x95 0x0B 0xF5 0x09 0x80 0x07 0xC3 0xE5 0x09 0x35 0x0B 0xF5 0x09 0xE5 0x0B 0x60 0x03 0x02 0x30 0xE3 0x75 0x0B 0x01 0x80 0x03 0x75 0x0B 0x00 0x53 0xA2 0xDB 0x43 0xA2 0x04 0x75 0xC8 0x00 0x75 0xC9 0x00 0xC2 0xC3 0x74 
write to 0x36 ack data: 0x31 0x80 0xED 0x75 0xA6 0x00 0x75 0xA7 0x00 0x75 0x98 0x00 0x75 0xA0 0x00 0x75 0xB1 0x00 0xD0 0xE0 0x64 0x02 0x70 0x0D 0xD2 0xC5 0x00 0x00 0x00 0x00 0x00 0xD2 0xC6 0x00 0x75 0x89 0x02 0xD0 0x03 0xD0 0x02 0xD0 0x04 0xD0 0x05 0xD0 0x06 0xD0 0x07 0x22 0x90 0x42 0xE0 0xE0 0xC3 0x94 0x61 0x40 0x7D 0x90 0x42 0xE7 0xE0 0xF5 0xF0 0x54 0xF4 0x43 
write to 0x36 ack data: 0x31 0xC0 0x0F 0x25 0x0B 0xC0 0xE0 0xE5 0xF0 0xC4 0x54 0x0F 0xD0 0xF0 0xC3 0x95 0xF0 0xE5 0xF0 0x50 0x09 0x33 0x74 0x00 0x40 0x04 0xE0 0xC4 0x54 0x0F 0x23 0x24 0xE8 0xF5 0x82 0x43 0xED 0x20 0x53 0xB5 0x7F 0x53 0xBD 0xFE 0x43 0xB5 0x02 0x43 0xBD 0x02 0xE0 0x54 0xFC 0x53 0xBD 0x03 0x42 0xBD 0xE0 0x54 0x01 0x53 0xBE 0xFE 0x42 0xBE 0x33 0x58 
write to 0x36 ack data: 0x32 0x00 0xA3 0xE0 0x54 0x1D 0x53 0xB5 0xE2 0x42 0xB5 0xE0 0x03 0x54 0x30 0x53 0xB6 0xC1 0x42 0xB6 0xE0 0x54 0x02 0x53 0x8D 0xFD 0x42 0x8D 0xE5 0x0A 0x60 0x09 0x54 0x07 0x23 0x23 0x53 0xB5 0xE3 0x42 0xB5 0x53 0xED 0xDF 0x22 0xC0 0x00 0xC0 0x89 0xD2 0xD9 0x12 0x31 0xB0 0x80 0x4D 0x43 0xED 0x20 0x53 0xB5 0x7F 0x53 0xBD 0xFE 0x43 0x6F 0x9A 
write to 0x36 ack data: 0x32 0x40 0xB5 0x02 0x43 0xBD 0x02 0x90 0x42 0x10 0xE0 0x54 0xFC 0x53 0xBD 0x03 0x42 0xBD 0xA3 0xE0 0x54 0x01 0x53 0xBE 0xFE 0x42 0xBE 0xA3 0xE0 0x54 0x01 0x53 0xB5 0xFE 0x42 0xB5 0xA3 0xE0 0xF5 0xF0 0x54 0x02 0x53 0x8D 0xFD 0x42 0x8D 0xE5 0xF0 0x54 0x30 0x53 0xB6 0xCF 0x42 0xB6 0x53 0xED 0xDF 0x22 0xC0 0x00 0xC0 0x89 0xD2 0xD9 0xDB 0x21 
write to 0x36 ack data: 0x32 0x80 0x12 0x32 0x36 0xA8 0x08 0xE5 0x09 0x54 0x0F 0xF5 0xCF 0xD2 0xD8 0x75 0x89 0x00 0x00 0xC2 0xC6 0xC2 0xC5 0x75 0xCE 0x00 0x75 0xCD 0x00 0x12 0x3F 0x35 0xE5 0x09 0x53 0x09 0x0F 0x54 0xF0 0xC4 0x70 0x02 0x74 0x04 0xC3 0x33 0xC3 0x33 0x75 0xA5 0x00 0xF5 0xA4 0xD2 0xE8 0x75 0x98 0x00 0x75 0xA0 0x00 0x43 0x87 0x01 0x00 0x00 0xF2 0x92 
write to 0x36 ack data: 0x32 0xC0 0x00 0xE5 0x98 0x54 0x20 0x70 0x02 0x80 0x45 0xE5 0xCD 0x65 0x0F 0x70 0xE6 0xE5 0xCE 0x65 0x0E 0x70 0xE0 0xE5 0xCE 0xF6 0x08 0xE5 0xCD 0xF6 0x75 0x98 0x00 0x75 0xA0 0x00 0x75 0x08 0x01 0x15 0x09 0xE5 0x09 0x60 0x26 0x75 0x98 0x00 0x75 0xA0 0x00 0x43 0x87 0x01 0x00 0x00 0x00 0xE5 0x98 0x54 0x30 0x70 0x02 0x60 0x0F 0x08 0x3B 0x9F 
write to 0x36 ack data: 0x33 0x00 0xE5 0xCE 0xF6 0x08 0xE5 0xCD 0xF6 0x05 0x08 0xD5 0x09 0xDF 0x80 0x03 0x75 0x08 0xFF 0xD0 0xE0 0x64 0x02 0x70 0x0D 0xD2 0xC5 0x00 0x00 0x00 0x00 0x00 0xD2 0xC6 0x00 0x75 0x89 0x02 0xD0 0x00 0xAF 0x08 0xC2 0xE8 0xC2 0xD8 0xC2 0xD9 0x75 0xA4 0x00 0x75 0xA5 0x00 0x75 0xCD 0x00 0x75 0xCE 0x00 0x75 0x98 0x00 0x75 0xA0 0x00 0x6B 0x1C 
write to 0x36 ack data: 0x33 0x40 0x12 0x3F 0x2B 0x22 0x90 0x60 0x7E 0x74 0x5A 0xF0 0x90 0x60 0x7D 0x74 0x5A 0xF0 0x90 0x60 0x7C 0x74 0xA5 0xF0 0x90 0x60 0x7B 0x74 0xA5 0xF0 0x22 0x12 0x33 0x44 0x75 0x98 0x00 0x75 0xA0 0x00 0x8E 0xE6 0x8F 0xE5 0xBD 0x00 0x26 0xBC 0x00 0x23 0xBB 0x00 0x20 0xBA 0x00 0x1D 0x53 0xA2 0xDB 0x75 0x89 0x00 0x00 0xC2 0xC6 0xC2 0xF4 0x07 
write to 0x36 ack data: 0x33 0x80 0xC5 0x43 0xA2 0x20 0x43 0x87 0x80 0x00 0x00 0x00 0x75 0x98 0x00 0x75 0xA0 0x00 0x02 0x00 0x00 0x8C 0x86 0x8D 0x84 0xBB 0x00 0x07 0xBA 0x00 0x04 0x7A 0x0F 0x7B 0xFF 0x43 0x8D 0x80 0x75 0xF3 0x72 0x75 0xF4 0x1C 0x75 0xF5 0xA9 0x12 0x32 0x36 0x43 0xF3 0x04 0x43 0x87 0x08 0x8A 0xD3 0xEB 0x54 0xF0 0xF5 0xD2 0xEB 0xC4 0x54 0xFC 0xD0 
write to 0x36 ack data: 0x33 0xC0 0xF0 0xF5 0xD1 0x43 0x87 0x80 0x00 0x00 0x00 0x75 0x98 0x00 0x75 0xA0 0x00 0x53 0x8D 0x7F 0x02 0x00 0x00 0x12 0x33 0x44 0x75 0x98 0x00 0x75 0xA0 0x00 0x8E 0xE6 0x8F 0xE5 0x8C 0x86 0x8D 0x84 0x8A 0x86 0x8B 0x84 0xAA 0x08 0xAB 0x09 0x43 0x8D 0x80 0x75 0xF3 0x7A 0x75 0xF4 0x1C 0x75 0xF5 0xA9 0x12 0x32 0x36 0x43 0xF3 0x04 0xF6 0xF6 
write to 0x36 ack data: 0x34 0x00 0x43 0x87 0x08 0x8A 0xD3 0xEB 0x54 0xF0 0xF5 0xD2 0xEB 0xC4 0x54 0xF0 0xF5 0xD1 0x43 0x87 0x80 0x00 0x00 0x00 0x75 0x98 0x00 0x75 0xA0 0x00 0x53 0x8D 0x7F 0x02 0x00 0x00 0x12 0x33 0x44 0x75 0x98 0x00 0x75 0xA0 0x00 0x8E 0xE6 0x8F 0xE5 0x75 0x86 0xFF 0x75 0x84 0xFF 0x43 0x8D 0x80 0x75 0xF3 0xF2 0x75 0xF4 0x1C 0x75 0xF5 0x7F 0x16 
write to 0x36 ack data: 0x34 0x40 0xA9 0x12 0x32 0x36 0x43 0xF3 0x04 0x43 0x87 0x08 0x8C 0xD3 0xED 0x54 0xF0 0xF5 0xD2 0xED 0xC4 0x54 0xF0 0xF5 0xD1 0x43 0x87 0x80 0x00 0x00 0x00 0x75 0x98 0x00 0x75 0xA0 0x00 0x53 0x8D 0x7F 0x02 0x00 0x00 0x75 0xE6 0xFF 0x75 0xE5 0xFF 0x75 0x98 0x00 0x75 0xA0 0x00 0x90 0x60 0x7E 0x74 0x5A 0xF0 0x90 0x60 0x7D 0x74 0xBC 0x79 0xDE 
write to 0x36 ack data: 0x34 0x80 0xF0 0x90 0x60 0x7C 0x74 0xCB 0xF0 0x90 0x60 0x7B 0x74 0xA5 0xF0 0x02 0x00 0x00 0xC0 0x00 0xC0 0x01 0xC0 0x02 0xC0 0x03 0xC0 0x04 0xC0 0x05 0xC0 0x06 0xC0 0x07 0xC0 0x16 0xC0 0x17 0xE5 0x09 0xF5 0x00 0xE5 0x08 0xF5 0x01 0xE5 0x0B 0xF5 0x02 0xE5 0x0A 0xF5 0x03 0xE5 0x0D 0xF5 0x04 0xE5 0x0C 0xF5 0x05 0xE5 0x0F 0xF5 0x06 0x12 0x97 
write to 0x36 ack data: 0x34 0xC0 0xE5 0x0E 0xF5 0x07 0xE5 0x00 0xF5 0x0D 0x75 0x0C 0x00 0xE5 0x04 0xF5 0x0B 0x75 0x0A 0x00 0x75 0x0F 0x00 0x75 0x0E 0x00 0xE5 0x0D 0x70 0x03 0x02 0x35 0x8D 0xE5 0x0B 0x70 0x03 0x02 0x35 0x8D 0xC3 0xE5 0x0D 0x35 0x0B 0xF5 0x0B 0xE5 0x0C 0x35 0x0A 0xF5 0x0A 0xC3 0xE5 0x0B 0x94 0x7F 0xF5 0x0B 0xE5 0x0A 0x94 0x00 0xF5 0x0A 0x0B 0x76 
write to 0x36 ack data: 0x35 0x00 0xE5 0x0B 0xF5 0x16 0x75 0x17 0x00 0xE5 0x02 0xF5 0x0B 0xE5 0x03 0xF5 0x0A 0xE5 0x06 0xF5 0x0D 0xE5 0x07 0xF5 0x0C 0xD3 0xE5 0x0A 0x13 0xF5 0x0A 0xE5 0x0B 0x13 0xF5 0x0B 0xD3 0xE5 0x0C 0x13 0xF5 0x0C 0xE5 0x0D 0x13 0xF5 0x0D 0x75 0x09 0x00 0x75 0x08 0x00 0x12 0x3A 0x9E 0xE5 0x16 0xF5 0x0D 0x75 0x0C 0x00 0x05 0x0D 0xE5 0xB7 0xD4 
write to 0x36 ack data: 0x35 0x40 0x0A 0x33 0xF5 0x0A 0xE5 0x09 0x33 0xF5 0x09 0xE5 0x08 0x33 0xF5 0x08 0x40 0x05 0x15 0x0D 0x02 0x35 0x3F 0xE5 0x09 0xF5 0x0B 0xE5 0x08 0xF5 0x0A 0xE5 0x0D 0xF5 0x16 0xE5 0x0C 0xF5 0x17 0xE5 0x01 0xF5 0x0C 0xE5 0x05 0xF5 0x0E 0x75 0x08 0x80 0x75 0x09 0x00 0xC3 0xE5 0x0C 0x95 0x0E 0xF5 0x0E 0xE5 0x16 0xF5 0x0D 0xE5 0x17 0xF9 0x4E 
write to 0x36 ack data: 0x35 0x80 0xF5 0x0C 0xE5 0x0E 0x60 0x17 0xE5 0x08 0x42 0x0C 0x02 0x35 0x9D 0xE5 0x0F 0xF5 0x0B 0xE5 0x0E 0xF5 0x0A 0xE5 0x0F 0xF5 0x0D 0xE5 0x0E 0xF5 0x0C 0xD0 0x17 0xD0 0x16 0xD0 0x07 0xD0 0x06 0xD0 0x05 0xD0 0x04 0xD0 0x03 0xD0 0x02 0xD0 0x01 0xD0 0x00 0x22 0xAC 0x05 0x78 0x08 0xA6 0x07 0xEC 0x30 0xE0 0x05 0x08 0x76 0x01 0x80 0x04 0xDA 
write to 0x36 ack data: 0x35 0xC0 0x04 0x78 0x09 0xE4 0xF6 0x78 0x08 0xE6 0x60 0x61 0x75 0x16 0x10 0x75 0x17 0x00 0x90 0x42 0x9C 0xE0 0x54 0x40 0x13 0x13 0x13 0x54 0x1F 0x78 0x0D 0xF6 0xE0 0x54 0x04 0x75 0xF0 0x40 0xA4 0xFF 0xA3 0xE0 0xFB 0xEF 0x4B 0x08 0xA6 0xF0 0x08 0xF6 0x12 0x3E 0xA9 0xEC 0x30 0xE1 0x03 0x12 0x3F 0x69 0x78 0x09 0xE6 0x60 0x1A 0xEC 0xCE 0x96 
write to 0x36 ack data: 0x36 0x00 0x54 0x30 0xFF 0x90 0x60 0x60 0xE4 0xF0 0xA3 0x74 0x32 0xF0 0x90 0x60 0x62 0x74 0xFF 0xF0 0xA3 0x74 0xCE 0xF0 0x12 0x2A 0x44 0x12 0x39 0x50 0xE5 0x10 0xA2 0xE7 0x13 0xF5 0x10 0xE5 0x11 0x13 0xF5 0x11 0x02 0x36 0xCB 0x75 0x16 0x08 0x75 0x17 0x00 0xEC 0x90 0x42 0x9C 0x20 0xE7 0x20 0xE0 0x54 0x20 0x13 0x13 0x54 0x3F 0x78 0x1B 0x80 
write to 0x36 ack data: 0x36 0x40 0x0D 0xF6 0xE0 0x54 0x02 0x75 0xF0 0x80 0xA4 0xFF 0x90 0x42 0x9E 0xE0 0xFB 0xEF 0x4B 0x08 0xA6 0xF0 0x08 0xF6 0x80 0x18 0xE0 0x54 0x10 0xFF 0xC3 0x13 0x78 0x0D 0xF6 0xE0 0x54 0x01 0xFE 0x90 0x42 0x9F 0xE0 0xFB 0xEB 0x08 0xA6 0x06 0x08 0xF6 0x12 0x3E 0xA9 0xEC 0x30 0xE1 0x03 0x12 0x3F 0x69 0x78 0x09 0xE6 0x60 0x49 0xEC 0x74 0x23 
write to 0x36 ack data: 0x36 0x80 0x54 0x30 0xFF 0xBF 0x10 0x16 0x90 0x60 0x60 0x74 0x04 0xF0 0xA3 0x74 0xB0 0xF0 0x90 0x60 0x62 0x74 0x03 0xF0 0xA3 0x74 0xE8 0xF0 0x80 0x29 0x90 0x60 0x60 0xBF 0x20 0x13 0x74 0xFC 0xF0 0xA3 0x74 0x18 0xF0 0x90 0x60 0x62 0x74 0xFB 0xF0 0xA3 0x74 0x50 0xF0 0x80 0x10 0xE4 0xF0 0xA3 0x74 0x32 0xF0 0x90 0x60 0x62 0x74 0xFF 0x46 0x59 
write to 0x36 ack data: 0x36 0xC0 0xF0 0xA3 0x74 0xCE 0xF0 0x12 0x2A 0x44 0x12 0x39 0x50 0xAE 0x10 0xAF 0x11 0x22 0xC0 0x00 0xC0 0x01 0xC0 0x02 0xC0 0x03 0x8E 0x0A 0x8F 0x0B 0x12 0x3B 0x2A 0x85 0x08 0x00 0x85 0x09 0x01 0x85 0x0A 0x02 0x85 0x0B 0x03 0x75 0xF0 0x00 0x85 0x04 0x83 0x85 0x05 0x82 0x12 0x37 0x98 0x12 0x34 0x90 0x85 0x0D 0x09 0x85 0x0C 0x08 0x61 0x40 
write to 0x36 ack data: 0x37 0x00 0x75 0xF0 0x08 0x85 0x04 0x83 0x85 0x05 0x82 0x12 0x37 0x98 0x12 0x27 0xB8 0xC0 0x08 0xC0 0x09 0xC0 0x0A 0xC0 0x0B 0x85 0x10 0x0A 0x85 0x11 0x0B 0x12 0x3B 0x2A 0xD0 0x0D 0xD0 0x0C 0xD0 0x0F 0xD0 0x0E 0x12 0x34 0x90 0xC0 0x0C 0xC0 0x0D 0xC0 0x0A 0xC0 0x0B 0x85 0x00 0x08 0x85 0x01 0x09 0x85 0x02 0x0A 0x85 0x03 0x0B 0x75 0x11 0x15 
write to 0x36 ack data: 0x37 0x40 0xF0 0x04 0x85 0x04 0x83 0x85 0x05 0x82 0x12 0x37 0x98 0x12 0x34 0x90 0x85 0x0D 0x09 0x85 0x0C 0x08 0x75 0xF0 0x0C 0x85 0x04 0x83 0x85 0x05 0x82 0x12 0x37 0x98 0x12 0x27 0xB8 0x85 0x0A 0x0C 0x85 0x0B 0x0D 0x85 0x08 0x0E 0x85 0x09 0x0F 0xD0 0x0B 0xD0 0x0A 0xD0 0x09 0xD0 0x08 0x12 0x27 0xB8 0x12 0x3A 0x01 0xAE 0x0A 0xAF 0x45 0x96 
write to 0x36 ack data: 0x37 0x80 0x0B 0xD0 0x03 0xD0 0x02 0xD0 0x01 0xD0 0x00 0x22 0xC3 0xE5 0x82 0x35 0xF0 0xF5 0x82 0xE5 0x83 0x34 0x00 0xF5 0x83 0x22 0x12 0x37 0x8A 0xE0 0xF5 0x0D 0xA3 0xE0 0xF5 0x0C 0xA3 0xE0 0xF5 0x0F 0xA3 0xE0 0xF5 0x0E 0x22 0xC0 0x00 0xC0 0x01 0xC0 0x02 0xC0 0x03 0xC0 0x04 0xC0 0x05 0xC0 0x89 0x75 0x00 0xD0 0x75 0x01 0x07 0x75 0x32 0xF7 
write to 0x36 ack data: 0x37 0xC0 0x05 0x00 0x85 0x05 0xA3 0x53 0xA3 0x1F 0x75 0x03 0x00 0x75 0x89 0x00 0xD2 0xC5 0xD2 0xC6 0xE5 0xA3 0xC3 0x94 0x1F 0x40 0x02 0x80 0x77 0x75 0xA6 0x00 0x75 0xA7 0x00 0x75 0xA4 0x27 0x75 0xA5 0x00 0x85 0x05 0xA3 0x75 0xB1 0x08 0x75 0xE8 0x03 0x75 0x98 0x00 0x75 0xA0 0x00 0x43 0x87 0x01 0x00 0x00 0x00 0xC2 0xE9 0xC2 0xE8 0xA3 0x0F 
write to 0x36 ack data: 0x38 0x00 0x75 0x98 0x00 0x75 0xA0 0x00 0x85 0xA6 0x09 0x85 0xA7 0x08 0x75 0xA6 0x00 0x75 0xA7 0x00 0xC3 0xE5 0x09 0x95 0x00 0xF5 0x0F 0xE5 0x08 0x95 0x01 0xF5 0x0E 0x50 0x1C 0xC3 0xE5 0x0F 0xF4 0x34 0x01 0xF5 0x0F 0xE5 0x0E 0xF4 0x34 0x00 0xF5 0x0E 0xC3 0xE5 0x0F 0x94 0x1E 0xE5 0x0E 0x94 0x00 0x40 0x1A 0x80 0x0D 0xC3 0xE5 0x0F 0x1A 0x97 
write to 0x36 ack data: 0x38 0x40 0x94 0x1E 0xE5 0x0E 0x94 0x00 0x40 0x0D 0x80 0x04 0x05 0x05 0x80 0x84 0x15 0x05 0x80 0x03 0x75 0x03 0x01 0x85 0x05 0xA3 0x75 0xB1 0x00 0x85 0x03 0x0D 0xC2 0xC6 0xC2 0xC5 0xD0 0xE0 0x64 0x02 0x70 0x0D 0xD2 0xC5 0x00 0x00 0x00 0x00 0x00 0xD2 0xC6 0x00 0x75 0x89 0x02 0xD0 0x05 0xD0 0x04 0xD0 0x03 0xD0 0x02 0xD0 0x01 0xD0 0x44 0xFB 
write to 0x36 ack data: 0x38 0x80 0x00 0x22 0xC0 0x89 0xEF 0x54 0x0F 0xF5 0xCF 0x75 0x89 0x00 0x00 0xC2 0xC6 0xC2 0xC5 0x43 0xED 0x20 0x53 0xB6 0xFE 0x53 0xB5 0x7F 0x53 0xBD 0xFD 0x43 0xBE 0x04 0x53 0xED 0xDF 0x12 0x3F 0x35 0x75 0xB1 0x01 0x75 0xA4 0x14 0x75 0xA5 0x00 0xD2 0xD8 0xD2 0xE8 0x75 0x98 0x00 0x75 0xA0 0x00 0x43 0x87 0x01 0x00 0x00 0x00 0xC2 0x22 0x60 
write to 0x36 ack data: 0x38 0xC0 0xE8 0x75 0xB1 0x00 0xD2 0xD9 0x75 0xA0 0x00 0x75 0x98 0x00 0xEF 0x54 0xF0 0x60 0x03 0xC4 0x80 0x02 0x74 0x03 0x75 0xA5 0x00 0xF5 0xA4 0x75 0xB1 0x01 0x90 0x60 0x6F 0xE0 0xF5 0xA1 0x53 0xA2 0xDB 0x43 0xA2 0x20 0xD2 0xE8 0x75 0x98 0x00 0x75 0xA0 0x00 0x43 0x87 0x01 0x00 0x00 0x00 0x53 0xA2 0xDB 0x43 0xA2 0x04 0x90 0x60 0xC1 0xBA 
write to 0x36 ack data: 0x39 0x00 0x79 0xE0 0xF5 0xA1 0xC2 0xE8 0x75 0xB1 0x00 0xE5 0x98 0x54 0x20 0x70 0x02 0x80 0x04 0x7F 0x00 0x80 0x02 0x7F 0xFF 0xD0 0xE0 0x64 0x02 0x70 0x0D 0xD2 0xC5 0x00 0x00 0x00 0x00 0x00 0xD2 0xC6 0x00 0x75 0x89 0x02 0xC2 0xE8 0xC2 0xD8 0xC2 0xD9 0x75 0xA4 0x00 0x75 0xA5 0x00 0x75 0xCD 0x00 0x75 0xCE 0x00 0x75 0x98 0x00 0x75 0x5B 0x29 
write to 0x36 ack data: 0x39 0x40 0xA0 0x00 0x12 0x3F 0x2B 0x22 0x78 0x0F 0x74 0x10 0x26 0xF6 0x18 0xE4 0x36 0xF6 0x43 0x8D 0x80 0x78 0x0D 0xE6 0xF5 0xFD 0x08 0x08 0xE6 0xF5 0xFE 0x53 0x8D 0x7F 0x53 0x8E 0xFC 0x78 0x08 0xE6 0x70 0x05 0x43 0x8E 0x01 0x80 0x09 0x78 0x08 0xE6 0xB4 0x02 0x03 0x43 0x8E 0x02 0x43 0x8D 0x40 0x43 0xC0 0x02 0xE4 0xF5 0x98 0xF5 0x32 0x78 
write to 0x36 ack data: 0x39 0x80 0xA0 0xC2 0xE8 0x75 0xA4 0x19 0xF5 0xA5 0xD2 0xE8 0x43 0x87 0x01 0x00 0x00 0x00 0xE5 0x98 0x30 0xE1 0xFB 0xC2 0xE8 0xD2 0xC5 0x78 0x0E 0xE6 0xFE 0xEE 0x30 0xE0 0x05 0x43 0xEB 0x40 0x80 0x03 0x53 0xEB 0xBF 0x75 0xE2 0x02 0xE4 0xF5 0xE1 0xD2 0xC6 0xF5 0x98 0xF5 0xA0 0x85 0x17 0xA4 0xE5 0x16 0xF5 0xA5 0xE4 0xF5 0xA6 0xF5 0xD9 0xC4 
write to 0x36 ack data: 0x39 0xC0 0xA7 0x43 0xEB 0x08 0xF5 0xD9 0xD2 0xC7 0xF5 0x10 0x75 0x11 0x10 0xE5 0x11 0x15 0x11 0xAE 0x10 0x70 0x02 0x15 0x10 0x4E 0x70 0xF3 0x43 0xE8 0x03 0x43 0x87 0x01 0x00 0x00 0x00 0xE5 0x98 0x30 0xE1 0xFB 0xC2 0xC7 0x53 0xE8 0xFC 0xAF 0xA7 0xEF 0xAD 0xA6 0xF5 0x10 0xED 0xF5 0x11 0x53 0xEB 0xF7 0x53 0xC0 0xFD 0x53 0x8D 0xBF 0x1B 0x2B 
write to 0x36 ack data: 0x3A 0x00 0x22 0xC0 0x00 0xC0 0x01 0xC0 0x02 0xC0 0x03 0xE5 0x09 0xF5 0x00 0xE5 0x08 0xF5 0x01 0xE5 0x0B 0xF5 0x02 0xE5 0x0A 0xF5 0x03 0xE5 0x02 0x70 0x04 0xE5 0x03 0x60 0x74 0x53 0x0B 0xFF 0x75 0x0A 0x00 0xC3 0xE5 0x0B 0x94 0x8E 0x50 0x5B 0xC3 0xE5 0x0B 0x94 0x7F 0xF5 0x0B 0x40 0x52 0xE5 0x0B 0xF5 0x09 0x75 0x0B 0x01 0xE5 0x09 0x92 0x07 
write to 0x36 ack data: 0x3A 0x40 0x60 0x23 0xE5 0x00 0xF5 0x0F 0xE5 0x01 0xF5 0x0E 0xC3 0xE5 0x0F 0x33 0xF5 0x0F 0xE5 0x0E 0x33 0xF5 0x0E 0xE5 0x0B 0x33 0xF5 0x0B 0xE5 0x0A 0x33 0xF5 0x0A 0x15 0x09 0xE5 0x09 0x70 0xE5 0x75 0x09 0x00 0x75 0x08 0x00 0xE5 0x02 0xF5 0x0F 0xE5 0x03 0xF5 0x0E 0xC3 0x33 0x50 0x1E 0xC3 0xE5 0x0B 0xF4 0x34 0x01 0xF5 0x0B 0xE5 0x81 0xAF 
write to 0x36 ack data: 0x3A 0x80 0x0A 0xF4 0x34 0x00 0xF5 0x0A 0x02 0x3A 0x95 0x75 0x0B 0x00 0x75 0x0A 0x00 0x75 0x09 0x01 0x75 0x08 0x00 0xD0 0x03 0xD0 0x02 0xD0 0x01 0xD0 0x00 0x22 0xC0 0x00 0xC0 0x01 0xC0 0x02 0xC0 0x03 0xC0 0x04 0xC0 0x05 0xC0 0x06 0xC0 0x07 0xE5 0x0B 0x85 0x0D 0xF0 0xA4 0xF5 0x00 0x85 0xF0 0x01 0xE5 0x0B 0x85 0x0C 0xF0 0xA4 0xF5 0xBA 0x7A 
write to 0x36 ack data: 0x3A 0xC0 0x02 0x85 0xF0 0x03 0xE5 0x0A 0x85 0x0D 0xF0 0xA4 0xF5 0x04 0x85 0xF0 0x05 0xE5 0x0A 0x85 0x0C 0xF0 0xA4 0xF5 0x06 0x85 0xF0 0x07 0xC3 0xE5 0x00 0xF5 0x0B 0xE5 0x02 0x35 0x04 0xC0 0xE0 0x74 0x00 0x34 0x00 0xF5 0xF0 0xD0 0xE0 0x25 0x01 0xF5 0x0A 0x74 0x00 0x35 0xF0 0x25 0x03 0xC0 0xE0 0x74 0x00 0x34 0x00 0xF5 0xF0 0xD0 0x2A 0x7F 
write to 0x36 ack data: 0x3B 0x00 0xE0 0x25 0x05 0xC0 0xE0 0x74 0x00 0x35 0xF0 0xF5 0xF0 0xD0 0xE0 0x25 0x06 0xF5 0x09 0x74 0x00 0x35 0xF0 0x35 0x07 0xF5 0x08 0xD0 0x07 0xD0 0x06 0xD0 0x05 0xD0 0x04 0xD0 0x03 0xD0 0x02 0xD0 0x01 0xD0 0x00 0x22 0x75 0x08 0x00 0x75 0x09 0x00 0x75 0x0E 0x00 0x75 0x0F 0x00 0x75 0x0C 0x00 0x75 0x0D 0x00 0xE5 0x0A 0x70 0x04 0xA5 0x85 
write to 0x36 ack data: 0x3B 0x40 0xE5 0x0B 0x60 0x4F 0xC3 0xE5 0x0A 0x33 0x50 0x15 0xC3 0xE5 0x0B 0xF4 0x34 0x01 0xF5 0x0B 0xE5 0x0A 0xF4 0x34 0x00 0xF5 0x0A 0x75 0x09 0x00 0x75 0x08 0x80 0x75 0x0C 0x00 0x75 0x0D 0x00 0x75 0x0E 0x00 0x75 0x0F 0x7F 0xC3 0xE5 0x0A 0x13 0xF5 0x0A 0xE5 0x0B 0x13 0xF5 0x0B 0xE5 0x0B 0x70 0x04 0xE5 0x0A 0x60 0x15 0xE5 0x0C 0x4F 0x92 
write to 0x36 ack data: 0x3B 0x80 0x13 0xF5 0x0C 0xE5 0x0D 0x13 0xF5 0x0D 0xC3 0x05 0x0F 0xE5 0x0E 0x34 0x00 0xF5 0x0E 0x80 0xD8 0xE5 0x0E 0x42 0x08 0xE5 0x0F 0x42 0x09 0xE5 0x0C 0xF5 0x0A 0xE5 0x0D 0xF5 0x0B 0x22 0x78 0x08 0xE6 0xFF 0xE4 0xFD 0x12 0x35 0xB2 0xAF 0x11 0xAE 0x10 0x12 0x3F 0x5D 0xD3 0xEF 0x94 0x08 0xEE 0x64 0x80 0x94 0x87 0x40 0x48 0x75 0x10 0xED 
write to 0x36 ack data: 0x3B 0xC0 0x16 0x08 0x75 0x17 0x00 0x78 0x0E 0x76 0x01 0x08 0x76 0xF0 0xD3 0xE5 0x11 0x94 0x00 0xE5 0x10 0x64 0x80 0x94 0x80 0x40 0x06 0x78 0x0D 0xE4 0xF6 0x80 0x0D 0xC3 0xE5 0x10 0x64 0x80 0x94 0x80 0x50 0x04 0x78 0x0D 0x76 0x08 0x12 0x3E 0xA9 0x12 0x39 0x50 0xAF 0x11 0xAE 0x10 0x12 0x3F 0x5D 0xD3 0xEF 0x94 0x08 0xEE 0x64 0x80 0x8A 0xD9 
write to 0x36 ack data: 0x3C 0x00 0x94 0x87 0x40 0x03 0x7F 0xFF 0x22 0x7F 0x00 0x22 0x78 0x08 0x76 0x01 0x75 0x16 0x07 0x75 0x17 0xFF 0x90 0x42 0x9C 0xE0 0x54 0x40 0x13 0x13 0x13 0x54 0x1F 0x78 0x0D 0xF6 0xE0 0x54 0x04 0x75 0xF0 0x40 0xA4 0xFF 0xA3 0xE0 0xFD 0xEF 0x4D 0x08 0xA6 0xF0 0x08 0xF6 0x12 0x3E 0xA9 0x12 0x3F 0x50 0x12 0x39 0x50 0xAF 0x11 0xAE 0xEF 0x12 
write to 0x36 ack data: 0x3C 0x40 0x10 0x12 0x3F 0x5D 0xEE 0x33 0x95 0xE0 0xFD 0xFC 0xE4 0x7B 0x32 0xFA 0xF9 0xF8 0xC3 0x12 0x3F 0x15 0x50 0x16 0x90 0x60 0x60 0xE4 0xF0 0xA3 0x74 0x32 0xF0 0x90 0x60 0x62 0x74 0xFF 0xF0 0xA3 0x74 0xCE 0xF0 0x12 0x2A 0x44 0x22 0xEF 0x54 0x80 0xFF 0x43 0x8F 0x80 0x90 0x70 0x00 0x74 0x55 0xF0 0x74 0xAA 0xF0 0x8E 0x83 0x8F 0x40 0xD3 
write to 0x36 ack data: 0x3C 0x80 0x82 0x74 0xFF 0xF0 0x53 0x8F 0x7F 0x22 0xEF 0x54 0xC0 0xFF 0x43 0x8F 0x80 0x90 0x70 0x00 0x74 0x55 0xF0 0x74 0xAA 0xF0 0x8E 0x83 0x8F 0x82 0x74 0x00 0xF0 0x53 0x8F 0x7F 0x22 0xEB 0x60 0x10 0x8E 0x83 0x8F 0x82 0xC0 0x00 0xED 0xF8 0xE0 0xF6 0x08 0xA3 0xDB 0xFA 0xD0 0x00 0x22 0x90 0x42 0x10 0xE0 0xF5 0x0D 0xA3 0xE0 0xF5 0x80 0x7A 
write to 0x36 ack data: 0x3C 0xC0 0x0C 0xE5 0x0D 0x45 0x0B 0xF5 0xBD 0xE5 0x0C 0x45 0x0A 0xF5 0xBE 0x90 0x42 0x12 0xE0 0xF5 0x0D 0xA3 0xE0 0xF5 0x0C 0x85 0x0D 0xB5 0x85 0x0C 0xB6 0x90 0x42 0x28 0xE0 0xF5 0x8D 0x22 0x75 0x0B 0x02 0x75 0x0A 0x00 0x12 0x3C 0xB7 0xD2 0xD8 0x75 0x09 0x18 0x15 0x09 0xE5 0x09 0x70 0xFA 0x75 0xCD 0x3C 0x75 0xCE 0x0F 0x22 0x43 0xF2 0xA8 
write to 0x36 ack data: 0x3D 0x00 0xEF 0x40 0x43 0x8D 0xC0 0x75 0xF6 0xC0 0x75 0xF7 0x0C 0x75 0xF9 0x80 0x75 0xFA 0x50 0x75 0xFB 0x0C 0xE4 0xF5 0xFC 0x78 0x0D 0xE6 0xF5 0xFD 0x08 0x08 0xE6 0xF5 0xFE 0xE4 0xF5 0xF2 0x75 0x8E 0xFC 0xF5 0xEC 0xF5 0xEB 0x75 0xEE 0xC6 0x75 0xED 0x0B 0x75 0xE4 0x01 0x75 0xE3 0x81 0x75 0xDF 0x10 0xF5 0xD7 0xD2 0xC5 0x43 0xD8 0x82 0xBF 
write to 0x36 ack data: 0x3D 0x40 0x04 0x43 0xD9 0x10 0x22 0x75 0x98 0x00 0x75 0xA0 0x00 0xC0 0x89 0x75 0x89 0x00 0xD2 0xC5 0x8F 0x99 0x43 0x99 0x08 0xC2 0xC6 0x00 0x00 0xD2 0xF9 0x00 0x00 0xC2 0xF9 0x00 0x00 0xC2 0xC5 0x7F 0x00 0x75 0x99 0x00 0x85 0x0F 0x0D 0xE5 0xA0 0x54 0x08 0x60 0x02 0x7F 0x01 0xD0 0xE0 0x64 0x02 0x70 0x0D 0xD2 0xC5 0x00 0x00 0x00 0x09 0xF3 
write to 0x36 ack data: 0x3D 0x80 0x00 0x00 0xD2 0xC6 0x00 0x75 0x89 0x02 0x22 0x7F 0x00 0x22 0x74 0x1C 0xD5 0xE0 0xFD 0x22 0xC0 0x07 0x12 0x3D 0x89 0xE5 0x07 0xD0 0x07 0x43 0x8D 0x80 0xB4 0x01 0x0A 0x53 0xF2 0x7F 0x43 0xF6 0x02 0xD2 0xDE 0x80 0x12 0xB4 0x02 0x07 0x43 0xF2 0x80 0xD2 0xDE 0x80 0x08 0x53 0xF2 0x7F 0x53 0xF6 0xFD 0xD2 0xDE 0x53 0x8D 0x7F 0x9F 0x5C 
write to 0x36 ack data: 0x3D 0xC0 0x53 0xC8 0x8C 0x43 0xC8 0x02 0xD2 0xED 0x12 0x3D 0x8C 0x22 0xC0 0x89 0x75 0x89 0x00 0x00 0xC2 0xC6 0xC2 0xC5 0x8F 0xA4 0x8E 0xA5 0xD2 0xE8 0x75 0x98 0x00 0x75 0xA0 0x00 0x43 0x87 0x01 0x00 0x00 0x00 0xE5 0x98 0x54 0x02 0x60 0xEE 0xC2 0xE8 0x75 0x98 0x00 0x75 0xA0 0x00 0xD0 0xE0 0x64 0x02 0x70 0x0D 0xD2 0xC5 0x00 0x00 0x05 0x9F 
write to 0x36 ack data: 0x3E 0x00 0x00 0x00 0x00 0xD2 0xC6 0x00 0x75 0x89 0x02 0x22 0x12 0x33 0x5D 0x22 0xC2 0xC1 0x53 0x80 0x7B 0x53 0xE8 0xFB 0x53 0xE8 0xFE 0xE4 0xF5 0x98 0xF5 0xA0 0xF5 0x9E 0xF5 0x9F 0xF5 0x96 0xF5 0x97 0x43 0xEF 0x40 0xF5 0xE2 0xF5 0xE1 0xF5 0xD9 0xF5 0xEC 0xF5 0xEB 0xF5 0xEE 0xF5 0xED 0xF5 0xE4 0xF5 0xE3 0xF5 0xDF 0xF5 0xD7 0xF5 0xB9 0x31 
write to 0x36 ack data: 0x3E 0x40 0xC0 0xF5 0xD8 0x53 0xEF 0xBF 0x22 0x53 0x89 0xFC 0x75 0x8A 0x00 0xC2 0xC6 0xC2 0xC5 0x22 0x53 0x89 0xFC 0x75 0x8A 0x00 0xC2 0xED 0x22 0xD2 0xC5 0x00 0x00 0x00 0x00 0x00 0xD2 0xC6 0x00 0x75 0x89 0x02 0x75 0x8A 0x00 0x22 0x75 0x89 0x00 0x12 0x3D 0x92 0x75 0x8A 0x02 0x43 0x89 0x03 0x22 0x22 0x22 0x7F 0x31 0x7E 0x00 0x22 0x06 0x23 
write to 0x36 ack data: 0x3E 0x80 0x90 0x42 0x24 0xE0 0xFC 0xA3 0xE0 0xFD 0xA3 0xE0 0xFE 0xA3 0xE0 0xFF 0x22 0x90 0x42 0xE1 0xE0 0xFE 0x64 0x73 0x70 0x0C 0x90 0x42 0xE0 0xE0 0xFF 0x54 0xF0 0x64 0x60 0x70 0x01 0x22 0x7F 0x60 0x7E 0x73 0x22 0x43 0x8D 0x80 0x53 0xF6 0x03 0x43 0xF6 0xC0 0x75 0xF7 0x0B 0x75 0xF9 0x81 0x75 0xFA 0x48 0x75 0xFB 0x0C 0xE4 0xF5 0xB1 0x64 
write to 0x36 ack data: 0x3E 0xC0 0xFC 0x53 0xF2 0x80 0x43 0xF2 0x0C 0x53 0x8D 0x7F 0xF5 0xEB 0xF5 0xEC 0xF5 0xED 0xF5 0xEE 0xF5 0xE3 0xF5 0xE4 0x22 0x90 0x42 0x06 0xE0 0xF5 0xDB 0xA3 0xE0 0xF5 0xDC 0x90 0x42 0x08 0xE0 0xF5 0xDD 0xA3 0xE0 0xF5 0xDE 0x22 0x75 0xDC 0x00 0x75 0xDB 0x00 0x75 0xDE 0x00 0x75 0xDD 0x00 0x22 0xEF 0x60 0x18 0x53 0x91 0xFB 0x43 0x8F 0x3F 
write to 0x36 ack data: 0x3F 0x00 0xD8 0x80 0x43 0xBF 0x20 0x53 0xBF 0x3F 0x43 0xBF 0x80 0x43 0x87 0x04 0x53 0xD7 0xF0 0x43 0xD7 0x02 0x22 0xEB 0x9F 0xF5 0xF0 0xEA 0x9E 0x42 0xF0 0xE9 0x9D 0x42 0xF0 0xEC 0x64 0x80 0xC8 0x64 0x80 0x98 0x45 0xF0 0x22 0x43 0xED 0x20 0x43 0xBE 0x08 0x53 0xED 0xDF 0x22 0x43 0xED 0x20 0x53 0xBE 0xF7 0x53 0xED 0xDF 0x22 0x12 0xEE 0x73 
write to 0x36 ack data: 0x3F 0x40 0x3E 0x0E 0x7F 0x01 0x12 0x3E 0xF9 0x12 0x3C 0x0A 0x12 0x3C 0xFF 0x02 0x3E 0x47 0x43 0x8D 0x80 0x75 0xFA 0x50 0xE4 0xF5 0xF2 0x53 0x8D 0x7F 0x22 0xEE 0x30 0xE7 0x07 0xC3 0xE4 0x9F 0xFF 0xE4 0x9E 0xFE 0x22 0x43 0x8D 0x80 0x43 0xF9 0x40 0x53 0x8D 0x7F 0x22 0x85 0x09 0xB1 0x53 0xB2 0xFE 0x22 0x22 0x22 0xFF 0xFF 0xFF 0xFF 0x42 0xF1 
write to 0x36 ack data: 0x3F 0x80 0xFF 0xFF 0xFF 0xFF 0xFF 0xFF 0xFF 0xFF 0xFF 0xFF 0xFF 0xFF 0xFF 0xFF 0xFF 0xFF 0xFF 0xFF 0xFF 0xFF 0xFF 0xFF 0xFF 0xFF 0xFF 0xFF 0xFF 0xFF 0xFF 0xFF 0xFF 0xFF 0xFF 0xFF 0xFF 0xFF 0xFF 0xFF 0xFF 0xFF 0xFF 0xFF 0xFF 0xFF 0xFF 0xFF 0xFF 0xFF 0xFF 0xFF 0xFF 0xFF 0xFF 0xFF 0xFF 0xFF 0xFF 0xFF 0xFF 0xFF 0xFF 0xFF 0xFF 0xFF 0x64 0x9C 
write to 0x36 ack data: 0x3F 0xC0 0xFF 0xFF 0xFF 0xFF 0xFF 0xFF 0xFF 0xFF 0xFF 0xFF 0xFF 0xFF 0xFF 0xFF 0xFF 0xFF 0xFF 0xFF 0xFF 0xFF 0xFF 0xFF 0xFF 0xFF 0xFF 0xFF 0xFF 0xFF 0xFF 0xFF 0xFF 0xFF 0xFF 0xFF 0xFF 0xFF 0xFF 0xFF 0xFF 0xFF 0xFF 0xFF 0xFF 0xFF 0xFF 0xFF 0xFF 0xFF 0xFF 0xFF 0xFF 0xFF 0xFF 0xFF 0xFF 0xFF 0xFF 0xFF 0xFF 0xFF 0xBF 0xFF 0xFF 0xEF 0xC7 0x0E 
write to 0x36 ack data: 0x40 0x00 0x00 0x00 0x00 0x08 0xFF 0xFF 0xFF 0xFF 0xFF 0xFF 0xFF 0xFF 0xFF 0xFF 0xFF 0xFF 0xFF 0xFF 0xFF 0xFF 0xFF 0xFF 0xFF 0xFF 0xFF 0xFF 0xFF 0xFF 0xFF 0xFF 0xFF 0xFF 0xFF 0xFF 0xFF 0xFF 0xFF 0xFF 0xFF 0xFF 0xFF 0xFF 0xFF 0xFF 0xFF 0xFF 0xFF 0xFF 0xFF 0xFF 0xFF 0xFF 0xFF 0xFF 0xFF 0xFF 0xFF 0xFF 0xFF 0xFF 0xFF 0xFF 0xFF 0xFF 0x05 0x69 
write to 0x36 ack data: 0x00 0x00 
read to 0x36 ack data: 0x80 0x0E 0xFF 0xFF 0xFF 0xFF 0xFF 0xFF 0x56 0x31 0x2E 0x32 0xFF 0xFF 0xFF 0xFF 0x75 0xA2 0x04 0x53 0x89 0xFC 0x75 0x81 0x26 0x12 0x02 0x22 0x53 0xC0 0x9F 0x43 0xC0 0x20 0x75 0xD8 0x00 0x75 0xE8 0x00 0x75 0xF8 0x00 0x90 0x60 0x73 0xE0 0x54 0x1F 0xF5 0xA3 0x43 0xC0 0x40 0x75 0x8A 0x00 0x43 0x89 0x02 0x43 0x8D 0x80 0x75 0x69 0x54
write to 0x36 ack data: 0x00 0x40 
read to 0x36 ack data: 0xF3 0x00 0x53 0x8D 0x7F 0x53 0x87 0xF7 0x75 0x86 0x00 0x75 0x84 0x00 0x75 0x86 0x00 0x75 0x84 0x00 0x90 0x60 0x79 0xE0 0xF5 0xA1 0x75 0xA2 0x04 0x43 0x8D 0x80 0x90 0x60 0x6F 0xE0 0xF5 0xF1 0x53 0x8D 0x7F 0x75 0xE6 0xFF 0x75 0xE5 0xFF 0x75 0xB2 0x00 0x75 0xD4 0x10 0x75 0xB1 0x00 0x90 0x42 0x29 0xE0 0xF5 0x8B 0x43 0xED 0x20 0x2F
write to 0x36 ack data: 0x00 0x80 
read to 0x36 ack data: 0x40 0x53 0xED 0xBF 0x75 0x80 0x00 0x75 0x88 0x00 0x75 0xBD 0x00 0x53 0xB6 0x80 0x75 0x98 0x00 0x75 0xA0 0x00 0x12 0x02 0xFF 0xEF 0x64 0xFF 0x70 0x02 0x01 0x10 0xE4 0x90 0x08 0x00 0x73 0x90 0x1F 0xFD 0xE0 0x64 0x78 0x70 0x27 0xA3 0xE0 0x64 0x78 0x70 0x21 0xA3 0xE0 0x64 0x78 0x70 0x1B 0x90 0x1F 0xC4 0xE0 0xFF 0x90 0x1F 0x03 0x3E
write to 0x36 ack data: 0x00 0xC0 
read to 0x36 ack data: 0xC2 0xE0 0xB5 0x07 0x0F 0x90 0x1F 0xC5 0xE0 0xFF 0x90 0x1F 0xC3 0xE0 0xB5 0x07 0x03 0x7F 0x01 0x22 0x90 0x1F 0xFD 0xE0 0x64 0xAB 0x60 0x03 0x02 0x01 0xD5 0xA3 0xE0 0x64 0xCD 0x60 0x03 0x02 0x01 0xD5 0xA3 0xE0 0x64 0xEF 0x60 0x03 0x02 0x01 0xD5 0x90 0x1F 0xC4 0xE0 0xFF 0x90 0x1F 0xC2 0xE0 0xB5 0x07 0x0F 0x90 0x1F 0xC5 0x9A 0x23
write to 0x36 ack data: 0x01 0x00 
read to 0x36 ack data: 0xE0 0xFF 0x90 0x1F 0xC3 0xE0 0xB5 0x07 0x03 0x7F 0x01 0x22 0x90 0x1F 0xC4 0xE0 0xB4 0xFF 0x05 0xA3 0xE0 0xF4 0x60 0x03 0x7F 0x00 0x22 0x90 0x1F 0xC0 0xE0 0xFE 0xA3 0xE0 0xFD 0xED 0xFF 0x4E 0x60 0x06 0xC3 0xEE 0x94 0x18 0x40 0x03 0x7F 0x00 0x22 0x12 0x07 0x59 0x7D 0x00 0x7C 0x08 0xE4 0x2F 0xFB 0xEE 0x34 0x08 0xFA 0xC3 0x45 0xDC
write to 0x36 ack data: 0x01 0x40 
read to 0x36 ack data: 0xED 0x9B 0xEC 0x9A 0x50 0x1D 0x8D 0x82 0x8C 0x83 0xE0 0xF5 0xAD 0xED 0x24 0x01 0xFB 0xE4 0x3C 0x8B 0x82 0xF5 0x83 0xE0 0xF5 0xAC 0x74 0x02 0x2D 0xFD 0xE4 0x3C 0xFC 0x80 0xD5 0x90 0x1F 0xC0 0xE0 0x78 0x80 0xF6 0xA3 0xE0 0x08 0xF6 0xA3 0xE0 0x08 0xF6 0xA3 0xE0 0x08 0xF6 0x08 0xA6 0xAC 0x08 0xA6 0xAD 0x90 0x1F 0xFD 0xE0 0x32 0x09
write to 0x36 ack data: 0x01 0x80 
read to 0x36 ack data: 0x78 0xBD 0xF6 0xA3 0xE0 0x08 0xF6 0xA3 0xE0 0x08 0xF6 0xE4 0xFD 0x7F 0x80 0x7E 0x1F 0x12 0x07 0x2C 0x7F 0x06 0x74 0x80 0x2F 0xF8 0x76 0xFF 0x0F 0xBF 0x3D 0xF6 0x7F 0xC0 0x7E 0x1F 0x12 0x07 0x43 0xE4 0xFF 0xEF 0x24 0xC0 0xFB 0xE4 0x34 0x1F 0x8B 0x82 0xF5 0x83 0xE0 0xFE 0x74 0x80 0x2F 0xF8 0xE6 0xFC 0xEE 0xB5 0x04 0x04 0x68 0xC9
write to 0x36 ack data: 0x01 0xC0 
read to 0x36 ack data: 0x0F 0xBF 0x40 0xE5 0xEF 0x64 0x40 0x60 0x04 0x0D 0xBD 0x03 0xC0 0xED 0x64 0x03 0x60 0x03 0x7F 0x01 0x22 0x7F 0x00 0x22 0x75 0xF0 0x01 0x02 0x02 0xD2 0x75 0xF0 0x03 0x12 0x02 0xD2 0xE5 0xA1 0x90 0x60 0x79 0xF0 0x12 0x02 0xE5 0x22 0x75 0xF0 0x04 0x12 0x02 0xD2 0x43 0x8D 0x80 0xE5 0xF1 0x53 0x8D 0x7F 0x90 0x60 0x6F 0xF0 0xF0 0xE9
write to 0x36 ack data: 0x02 0x00 
read to 0x36 ack data: 0x12 0x02 0xE5 0x22 0x75 0xF0 0x05 0x02 0x02 0xD2 0x75 0xF0 0x06 0x02 0x02 0xD2 0x75 0xF0 0x07 0x02 0x02 0xD2 0x75 0xF0 0x08 0x02 0x02 0xD2 0x75 0xF0 0x09 0x02 0x02 0xD2 0x75 0xF0 0x0C 0x02 0x02 0xD2 0x75 0xF0 0x0D 0x02 0x02 0xD2 0x75 0xF0 0x0E 0x02 0x02 0xD2 0x75 0xF0 0x10 0x02 0x02 0xD2 0x75 0xF0 0x11 0x02 0x02 0xD2 0xE6 0xD1
write to 0x36 ack data: 0x02 0x40 
read to 0x36 ack data: 0x75 0xF0 0x15 0x12 0x02 0xD2 0xE5 0xA3 0x90 0x60 0x73 0xF0 0x12 0x02 0xE5 0x22 0x75 0xF0 0x16 0x80 0x7D 0x75 0xF0 0x17 0x80 0x78 0x75 0xF0 0x18 0x80 0x73 0x75 0xF0 0x19 0x80 0x6E 0x8F 0x08 0x8D 0x09 0x8A 0x0E 0x8B 0x0F 0x75 0xF0 0x1B 0x80 0x61 0x75 0xF0 0x1C 0x80 0x5C 0x75 0xF0 0x23 0x80 0x57 0x75 0xF0 0x28 0x80 0x52 0x09 0xF3
write to 0x36 ack data: 0x02 0x80 
read to 0x36 ack data: 0x75 0xF0 0x2C 0x80 0x4D 0x75 0xF0 0x2D 0x12 0x02 0xD2 0x43 0x8D 0x80 0xE5 0xF1 0x53 0x8D 0x7F 0x90 0x60 0x6F 0xF0 0x12 0x02 0xE5 0x22 0x75 0xF0 0x30 0x80 0x32 0x75 0xF0 0x32 0x80 0x2D 0x75 0xF0 0x33 0x80 0x28 0x75 0xF0 0x34 0x80 0x23 0x75 0xF0 0x35 0x80 0x1E 0x75 0xF0 0x36 0x80 0x19 0x75 0xF0 0x37 0x80 0x14 0x75 0xF0 0x08 0x90
write to 0x36 ack data: 0x02 0xC0 
read to 0x36 ack data: 0x38 0x80 0x0F 0x75 0xF0 0x39 0x80 0x0A 0x75 0xF0 0x3A 0x80 0x05 0x75 0xF0 0x3F 0x80 0x00 0x02 0x20 0x00 0x75 0xA0 0x00 0x75 0x98 0x00 0x43 0x9B 0x80 0x43 0x9B 0x04 0x43 0x9B 0x18 0x22 0x75 0xE6 0xFF 0x75 0xE5 0xFF 0x22 0x53 0xB2 0xFD 0x43 0xD4 0x10 0x43 0x8F 0x01 0x80 0xFE 0x12 0x02 0x76 0x7D 0x18 0x7C 0x00 0x22 0x90 0x28 0x41
write to 0x36 ack data: 0x03 0x00 
read to 0x36 ack data: 0x60 0x7B 0xE0 0xB4 0xA5 0x1A 0x90 0x60 0x7C 0xE0 0xB4 0xCB 0x13 0x90 0x60 0x7D 0xE0 0xB4 0xBC 0x0C 0x90 0x60 0x7E 0xE0 0xB4 0x5A 0x05 0x75 0x1C 0x01 0x80 0x03 0xE4 0xF5 0x1C 0xE5 0x1C 0x60 0x17 0xE4 0x90 0x60 0x7C 0xF0 0x90 0x60 0x7B 0xF0 0x90 0x60 0x7E 0xF0 0x90 0x60 0x7D 0xF0 0x53 0x89 0x03 0x12 0x05 0xD3 0x12 0x00 0x6C 0x51
write to 0x36 ack data: 0x03 0x40 
read to 0x36 ack data: 0xA5 0xEF 0x60 0x50 0x12 0x02 0x34 0x12 0x02 0xB4 0x8E 0x18 0x8F 0x19 0x90 0x60 0x7B 0xE0 0xB4 0xA5 0x16 0x90 0x60 0x7C 0xE0 0xB4 0xA5 0x0F 0x90 0x60 0x7D 0xE0 0xB4 0x5A 0x08 0x90 0x60 0x7E 0xE0 0x64 0x5A 0x60 0x05 0x75 0x1C 0x01 0x80 0x1E 0xE4 0x90 0x60 0x7C 0xF0 0x90 0x60 0x7B 0xF0 0x90 0x60 0x7E 0xF0 0x90 0x60 0x7D 0xFD 0xB4
write to 0x36 ack data: 0x03 0x80 
read to 0x36 ack data: 0xF0 0xE5 0x89 0x30 0xE2 0x05 0x75 0x1C 0x02 0x80 0x03 0xE4 0xF5 0x1C 0x53 0x89 0x03 0xAF 0x1C 0x22 0x53 0x89 0x03 0x7F 0xC0 0x7E 0x12 0x12 0x06 0x9E 0x7F 0x2C 0x7E 0x01 0x12 0x06 0x65 0x75 0xA2 0x04 0x90 0x60 0x79 0xE0 0xF5 0xA1 0x74 0x5A 0xFB 0xFA 0x7D 0x02 0x7F 0x80 0x12 0x02 0x64 0xEF 0xF4 0x60 0x0E 0x78 0x82 0xE6 0xF9 0x4F
write to 0x36 ack data: 0x03 0xC0 
read to 0x36 ack data: 0xB4 0x81 0x08 0x08 0xE6 0xB4 0x7E 0x03 0x12 0x02 0x9B 0xE4 0xFB 0xFA 0xFD 0xFC 0x7F 0x24 0x7E 0x07 0x12 0x07 0x94 0x7F 0xFF 0x22 0x8F 0x1E 0x7B 0x00 0x7A 0xF0 0xE4 0xFD 0xFC 0xFF 0x12 0x07 0x02 0x74 0x4D 0xFC 0xAD 0x1E 0x7F 0x01 0x12 0x07 0x02 0x90 0x42 0x24 0xE0 0xFD 0xE5 0x25 0xFC 0x7F 0x02 0x12 0x07 0x02 0xA3 0xE0 0xC2 0xA3
write to 0x36 ack data: 0x04 0x00 
read to 0x36 ack data: 0xFE 0xA3 0xE0 0xFD 0xEE 0xFC 0x7F 0x03 0x12 0x07 0x02 0xA3 0xE0 0xAD 0x26 0xFC 0x7F 0x04 0x12 0x07 0x02 0x12 0x07 0x59 0x75 0xAD 0x4D 0x85 0x1E 0xAC 0xE5 0x25 0xF5 0xAD 0x90 0x42 0x24 0xE0 0xF5 0xAC 0xA3 0xE0 0xF5 0xAD 0xA3 0xE0 0xF5 0xAC 0xA3 0xE0 0xF5 0xAD 0xE5 0x26 0xF5 0xAC 0xAF 0xAC 0xEF 0xAD 0xAD 0xFC 0x7F 0x05 0x7C 0xDC
write to 0x36 ack data: 0x04 0x40 
read to 0x36 ack data: 0x12 0x07 0x02 0x12 0x02 0xAA 0x8F 0x1E 0xE5 0x1E 0xB4 0x01 0x0B 0x75 0xC1 0x2A 0x75 0xC2 0x02 0x75 0x1E 0xC0 0x80 0x19 0xE5 0x1E 0xB4 0x02 0x0B 0x75 0xC1 0xD7 0x75 0xC2 0x03 0x75 0x1E 0xED 0x80 0x09 0x75 0xC1 0x1E 0x75 0xC2 0x05 0x75 0x1E 0xB1 0xE4 0xF5 0xC3 0xF5 0xC4 0x75 0x22 0x06 0x75 0x23 0x80 0x85 0x1E 0x24 0x7B 0xF6 0xA0
write to 0x36 ack data: 0x04 0x80 
read to 0x36 ack data: 0x08 0x7D 0x06 0x7F 0x0C 0x02 0x07 0x82 0xC0 0x00 0xC0 0x89 0xE5 0x07 0xF8 0x85 0x05 0xCF 0x75 0x89 0x00 0x00 0xC2 0xC6 0xC2 0xC5 0x75 0xCE 0x00 0x75 0xCD 0x00 0xD2 0xD9 0xD2 0xD8 0x12 0x02 0xAF 0x12 0x02 0x3A 0x75 0xA5 0x00 0x75 0xA4 0x64 0xD2 0xE8 0x75 0x98 0x00 0x75 0xA0 0x00 0x43 0x87 0x01 0x00 0x00 0x00 0xE5 0x98 0xFA 0xAD
write to 0x36 ack data: 0x04 0xC0 
read to 0x36 ack data: 0x54 0x20 0x60 0x43 0xE5 0xCD 0x65 0x03 0x70 0xE8 0xE5 0xCE 0x65 0x02 0x70 0xE2 0xA6 0x02 0x08 0xA6 0x03 0x08 0x75 0x07 0x01 0xD5 0x05 0x02 0x80 0x2C 0xC2 0xE8 0x75 0xA5 0x00 0x75 0xA4 0x2D 0xD2 0xE8 0x75 0x98 0x00 0x75 0xA0 0x00 0x43 0x87 0x01 0x00 0x00 0x00 0xE5 0x98 0x54 0x20 0x60 0x0D 0xA6 0xCE 0x08 0xA6 0xCD 0x08 0xE4 0xC3
write to 0x36 ack data: 0x05 0x00 
read to 0x36 ack data: 0x05 0x07 0xD5 0x05 0xE3 0x80 0x03 0x75 0x07 0xFF 0xC2 0xE8 0xC2 0xD8 0xC2 0xD9 0x75 0xA4 0x00 0x75 0xA5 0x00 0x75 0xCD 0x00 0x75 0xCE 0x00 0xD0 0xE0 0x64 0x02 0x70 0x03 0x12 0x02 0x16 0x12 0x02 0x34 0x12 0x02 0xD5 0xD0 0x00 0x22 0x12 0x06 0xD4 0xEF 0x70 0x05 0x7F 0x99 0x02 0x05 0xC5 0xE4 0xB5 0x26 0x17 0xE5 0x25 0xB4 0x77 0x52
write to 0x36 ack data: 0x05 0x40 
read to 0x36 ack data: 0x08 0x12 0x7F 0x80 0x7E 0x1F 0x12 0x07 0x2C 0x90 0x1F 0xBF 0xE0 0xF4 0x60 0x04 0x7F 0x9B 0x80 0x71 0xE5 0x26 0x54 0x7F 0x70 0x07 0xAF 0x26 0xAE 0x25 0x12 0x07 0x2C 0xE4 0xFD 0xAF 0x26 0xAE 0x25 0x12 0x07 0x43 0xE4 0xFF 0xEF 0x7A 0x00 0x25 0x26 0xFB 0xEA 0x35 0x25 0x8B 0x82 0xF5 0x83 0xE0 0xFE 0x74 0x80 0x2F 0xF8 0xE6 0x54 0x55
write to 0x36 ack data: 0x05 0x80 
read to 0x36 ack data: 0xFC 0xEE 0xB5 0x04 0x04 0x0F 0xBF 0x40 0xE3 0xEF 0x64 0x40 0x60 0x04 0x0D 0xBD 0x03 0xD1 0xBD 0x03 0x18 0xE5 0x26 0x54 0x7F 0x64 0x40 0x70 0x0C 0x74 0xC0 0x25 0x26 0xF5 0x26 0x74 0xFF 0x35 0x25 0xF5 0x25 0x7F 0x9B 0x80 0x18 0x74 0x40 0x25 0x26 0xF5 0x26 0xE4 0x35 0x25 0xF5 0x25 0xC3 0x94 0x20 0x40 0x0E 0x12 0x00 0xA5 0xCB 0x7A
write to 0x36 ack data: 0x05 0xC0 
read to 0x36 ack data: 0xEF 0x70 0x08 0x7F 0x9A 0x12 0x03 0xDA 0x7F 0x00 0x22 0x7F 0x98 0x12 0x03 0xDA 0x7F 0x01 0x22 0xE4 0xF5 0x25 0xF5 0x26 0x7F 0x98 0x12 0x03 0xDA 0x12 0x07 0xA4 0x12 0x07 0xA1 0x75 0x25 0x08 0x75 0x26 0x00 0xE4 0xF5 0x1D 0x12 0x02 0xE5 0x75 0xA2 0x04 0x90 0x60 0x79 0xE0 0xF5 0xA1 0x7B 0x7E 0x7A 0x81 0x7D 0x23 0x7F 0x7E 0xEF 0xE9
write to 0x36 ack data: 0x06 0x00 
read to 0x36 ack data: 0x12 0x04 0x88 0xEF 0xF4 0x60 0x3E 0x78 0xC0 0xE6 0x65 0x26 0x70 0x01 0xE4 0x70 0x16 0xE5 0x25 0xFF 0x08 0xE6 0xB5 0x07 0x0E 0x12 0x05 0x2E 0xEF 0x60 0x26 0xC3 0xE5 0x25 0x94 0x20 0x40 0x28 0x22 0x78 0xC0 0xE6 0xB4 0x80 0x13 0x08 0xE6 0xB4 0x1F 0x0E 0x75 0x25 0x1F 0x75 0x26 0x80 0x12 0x05 0x2E 0xEF 0x60 0x07 0x80 0x0E 0x91 0xE8
write to 0x36 ack data: 0x06 0x40 
read to 0x36 ack data: 0x7F 0x9A 0x12 0x03 0xDA 0x05 0x1D 0xE5 0x1D 0xC3 0x94 0x1E 0x40 0x9E 0xE5 0x1D 0x64 0x1E 0x70 0x95 0x12 0x02 0xE5 0xE4 0x90 0x60 0x02 0xF0 0xA3 0xF0 0x90 0x60 0x00 0xF0 0xA3 0xF0 0x22 0x90 0x60 0x02 0xE0 0xFC 0xA3 0xE0 0xFD 0xD3 0x9F 0xEC 0x9E 0x40 0x0A 0x90 0x60 0x02 0xEE 0xF0 0xA3 0xEF 0xF0 0x80 0x12 0xED 0x4C 0x70 0x31 0x8E
write to 0x36 ack data: 0x06 0x80 
read to 0x36 ack data: 0x0E 0x90 0x60 0x02 0xEE 0xF0 0xA3 0xEF 0xF0 0x12 0x07 0xA4 0x12 0x07 0xA1 0x90 0x60 0x03 0xE0 0x24 0xFF 0xF0 0x90 0x60 0x02 0xE0 0x34 0xFF 0xF0 0x22 0x90 0x60 0x00 0xE0 0xFC 0xA3 0xE0 0xFD 0xD3 0x9F 0xEC 0x9E 0x40 0x0A 0x90 0x60 0x00 0xEE 0xF0 0xA3 0xEF 0xF0 0x80 0x0F 0xED 0x4C 0x70 0x0B 0x90 0x60 0x00 0xEE 0xF0 0xA3 0x8D 0x85
write to 0x36 ack data: 0x06 0xC0 
read to 0x36 ack data: 0xEF 0xF0 0x12 0x07 0x6F 0x90 0x60 0x01 0xE0 0x24 0xFF 0xF0 0x90 0x60 0x00 0xE0 0x34 0xFF 0xF0 0x22 0x12 0x07 0x59 0xE4 0xFF 0xEF 0xC3 0x94 0x42 0x50 0x12 0x74 0x80 0x2F 0xF8 0xE6 0xF5 0xAD 0x74 0x81 0x2F 0xF8 0xE6 0xF5 0xAC 0x0F 0x0F 0x80 0xE8 0x78 0xC2 0xE6 0xB5 0xAC 0x08 0x08 0xE6 0xB5 0xAD 0x03 0x7F 0x01 0x22 0x7F 0x59 0xD3
write to 0x36 ack data: 0x07 0x00 
read to 0x36 ack data: 0x00 0x22 0xA9 0x07 0xE9 0x25 0xE0 0x25 0xE0 0xF9 0xAF 0x04 0x24 0x80 0xF8 0xA6 0x07 0xAF 0x05 0x74 0x81 0x29 0xF8 0xA6 0x07 0xAF 0x03 0x74 0x82 0x29 0xF8 0xA6 0x07 0xAF 0x02 0xAE 0x01 0x74 0x83 0x2E 0xF8 0xA6 0x07 0x22 0x43 0x8F 0x80 0x90 0x70 0x00 0x74 0x55 0xF0 0x74 0xAA 0xF0 0x8F 0x82 0x8E 0x83 0x74 0xFF 0xF0 0x53 0x83 0x91
write to 0x36 ack data: 0x07 0x40 
read to 0x36 ack data: 0x8F 0x7F 0x22 0x43 0x8F 0x80 0x90 0x70 0x00 0x74 0x55 0xF0 0x74 0xAA 0xF0 0x8F 0x82 0x8E 0x83 0xE4 0xF0 0x53 0x8F 0x7F 0x22 0xE4 0xF5 0xAB 0xF5 0xAA 0x75 0xA9 0x0F 0xF5 0xAD 0xF5 0xAC 0x75 0xAB 0x08 0x75 0xAA 0x10 0x75 0xA9 0xFF 0x22 0x90 0x60 0x04 0xE0 0x60 0x03 0x02 0x02 0x85 0x12 0x01 0xEE 0x90 0x60 0x04 0x74 0x01 0x1B 0x64
write to 0x36 ack data: 0x07 0x80 
read to 0x36 ack data: 0xF0 0x22 0x8F 0x0B 0x85 0x24 0x0A 0x8D 0x09 0x8B 0x08 0x85 0x22 0x0D 0x85 0x23 0x0F 0x02 0x02 0x71 0xE5 0x19 0x64 0x90 0x70 0x04 0xFA 0xFB 0xFC 0xFD 0x02 0x02 0xA5 0x02 0x02 0x40 0x02 0x01 0xDE 0xFF 0xFF 0xFF 0xFF 0xFF 0xFF 0xFF 0xFF 0xFF 0xFF 0xFF 0xFF 0xFF 0xFF 0xFF 0xFF 0xFF 0xFF 0xFF 0xFF 0xFF 0xFF 0xFF 0xFF 0xFF 0x77 0x7E
write to 0x36 ack data: 0x07 0xC0 
read to 0x36 ack data: 0xFF 0xFF 0xFF 0xFF 0xFF 0xFF 0xFF 0xFF 0xFF 0xFF 0xFF 0xFF 0xFF 0xFF 0xFF 0xFF 0xFF 0xFF 0xFF 0xFF 0xFF 0xFF 0xFF 0xFF 0xFF 0xFF 0xFF 0xFF 0xFF 0xFF 0xFF 0xFF 0xFF 0xFF 0xFF 0xFF 0xFF 0xFF 0xFF 0xFF 0xFF 0xFF 0xFF 0xFF 0xFF 0xFF 0xFF 0xFF 0xFF 0xFF 0xFF 0xFF 0xFF 0xFF 0xFF 0xFF 0xFF 0xFF 0xFF 0xFF 0xFF 0xFF 0xFF 0xFF 0xF1 0x54
write to 0x36 ack data: 0x08 0x00 
read to 0x36 ack data: 0x75 0x81 0x33 0x02 0x10 0xFF 0x00 0x7F 0x00 0x22 0x75 0xF0 0x01 0x02 0x09 0x04 0x75 0xF0 0x03 0x12 0x09 0x04 0xE5 0xA1 0x90 0x60 0x79 0xF0 0x12 0x09 0x17 0x22 0x75 0xF0 0x04 0x12 0x09 0x04 0x43 0x8D 0x80 0xE5 0xF1 0x53 0x8D 0x7F 0x90 0x60 0x6F 0xF0 0x12 0x09 0x17 0x22 0x75 0xF0 0x05 0x02 0x09 0x04 0x75 0xF0 0x06 0x02 0x6A 0xBB
write to 0x36 ack data: 0x08 0x40 
read to 0x36 ack data: 0x09 0x04 0x75 0xF0 0x07 0x02 0x09 0x04 0x75 0xF0 0x08 0x02 0x09 0x04 0x75 0xF0 0x09 0x02 0x09 0x04 0x75 0xF0 0x0C 0x02 0x09 0x04 0x75 0xF0 0x0D 0x02 0x09 0x04 0x75 0xF0 0x0E 0x02 0x09 0x04 0x75 0xF0 0x10 0x02 0x09 0x04 0x75 0xF0 0x11 0x02 0x09 0x04 0x75 0xF0 0x15 0x12 0x09 0x04 0xE5 0xA3 0x90 0x60 0x73 0xF0 0x12 0x09 0x05 0xC2
write to 0x36 ack data: 0x08 0x80 
read to 0x36 ack data: 0x17 0x22 0x75 0xF0 0x16 0x80 0x7D 0x75 0xF0 0x17 0x80 0x78 0x75 0xF0 0x18 0x80 0x73 0x75 0xF0 0x19 0x80 0x6E 0x8F 0x08 0x8D 0x09 0x8A 0x0E 0x8B 0x0F 0x75 0xF0 0x1B 0x80 0x61 0x75 0xF0 0x1C 0x80 0x5C 0x75 0xF0 0x23 0x80 0x57 0x75 0xF0 0x28 0x80 0x52 0x75 0xF0 0x2C 0x80 0x4D 0x75 0xF0 0x2D 0x12 0x09 0x04 0x43 0x8D 0x80 0xD7 0x69
write to 0x36 ack data: 0x08 0xC0 
read to 0x36 ack data: 0xE5 0xF1 0x53 0x8D 0x7F 0x90 0x60 0x6F 0xF0 0x12 0x09 0x17 0x22 0x75 0xF0 0x30 0x80 0x32 0x75 0xF0 0x32 0x80 0x2D 0x75 0xF0 0x33 0x80 0x28 0x75 0xF0 0x34 0x80 0x23 0x75 0xF0 0x35 0x80 0x1E 0x75 0xF0 0x36 0x80 0x19 0x75 0xF0 0x37 0x80 0x14 0x75 0xF0 0x38 0x80 0x0F 0x75 0xF0 0x39 0x80 0x0A 0x75 0xF0 0x3A 0x80 0x05 0x75 0xA7 0x21
write to 0x36 ack data: 0x09 0x00 
read to 0x36 ack data: 0xF0 0x3F 0x80 0x00 0x02 0x20 0x00 0x75 0xA0 0x00 0x75 0x98 0x00 0x43 0x9B 0x80 0x43 0x9B 0x04 0x43 0x9B 0x18 0x22 0x75 0xE6 0xFF 0x75 0xE5 0xFF 0x22 0x53 0xB2 0xFD 0x43 0xD4 0x10 0x43 0x8F 0x01 0x80 0xFE 0x12 0x08 0xA8 0x7D 0x18 0x7C 0x00 0x22 0xD2 0xC1 0x30 0xA2 0x03 0x20 0xA1 0x0D 0xE5 0x9F 0x20 0xE7 0x79 0xE5 0x97 0x9A 0xC4
write to 0x36 ack data: 0x09 0x40 
read to 0x36 ack data: 0x30 0xE7 0xF0 0x02 0x0A 0x07 0xE4 0xF5 0xA0 0xF5 0x98 0xF5 0x9F 0xF5 0x9E 0xF5 0x97 0xF5 0x96 0xF5 0x33 0xE5 0x33 0x70 0x25 0x20 0xA2 0x08 0xE5 0x9F 0x30 0xE7 0xF8 0x02 0x0A 0x07 0xAF 0x9F 0xEF 0xFF 0xAD 0x9E 0xED 0x90 0x60 0x0F 0xCF 0xF0 0xA3 0xEF 0xF0 0xE4 0xF5 0xA0 0xF5 0x98 0xF5 0x9F 0xF5 0x9E 0x80 0x0F 0x90 0x60 0xA5 0xBE
write to 0x36 ack data: 0x09 0x80 
read to 0x36 ack data: 0x11 0xE0 0xFF 0xA3 0xE0 0x90 0x60 0x0F 0xCF 0xF0 0xA3 0xEF 0xF0 0x20 0xA1 0x07 0xE5 0x97 0x30 0xE7 0xF8 0x80 0x70 0xAF 0x97 0xEF 0xFF 0xAD 0x96 0xED 0x90 0x60 0x0D 0xCF 0xF0 0xA3 0xEF 0xF0 0xE4 0xF5 0xA0 0xF5 0x98 0xF5 0x97 0xF5 0x96 0x20 0xA2 0x07 0xE5 0x9F 0x30 0xE7 0xF8 0x80 0x4E 0x12 0x0D 0x33 0xAF 0x9F 0xEF 0xFF 0x35 0xE2
write to 0x36 ack data: 0x09 0xC0 
read to 0x36 ack data: 0xAD 0x9E 0xED 0x90 0x60 0x11 0xCF 0xF0 0xA3 0xEF 0xF0 0xE4 0xF5 0xA0 0xF5 0x98 0xF5 0x9F 0xF5 0x9E 0x12 0x0D 0x2F 0xE5 0x33 0xD3 0x94 0x00 0x40 0x2D 0x90 0x60 0x13 0xE0 0xFF 0xE5 0xE7 0xD3 0x9F 0x40 0x0A 0xE5 0xE7 0x9F 0xD3 0x94 0x01 0x40 0x1A 0x80 0x14 0x90 0x60 0x13 0xE0 0xFF 0xE5 0xE7 0xC3 0x9F 0x50 0x0D 0xC3 0xEF 0x1F 0x80
write to 0x36 ack data: 0x0A 0x00 
read to 0x36 ack data: 0x95 0xE7 0xD3 0x94 0x01 0x40 0x04 0xE4 0xFE 0xFF 0x22 0x90 0x60 0x13 0xE5 0xE7 0xF0 0x05 0x33 0xE5 0x33 0xC3 0x94 0x03 0x50 0x03 0x02 0x09 0x55 0x90 0x60 0x0F 0xE0 0xFE 0xA3 0xE0 0xFF 0x7C 0x00 0x7D 0x02 0x12 0x0B 0x00 0x90 0x60 0x0E 0xE0 0x2F 0xFB 0x90 0x60 0x0D 0xE0 0x3E 0xFA 0x90 0x60 0x11 0xE0 0xFE 0xA3 0xE0 0xFF 0xC4 0xF6
write to 0x36 ack data: 0x0A 0x40 
read to 0x36 ack data: 0x7C 0x00 0x7D 0x02 0x12 0x0B 0x00 0xEF 0x2B 0xF5 0x1B 0xEE 0x3A 0xF5 0x1A 0xFE 0xAF 0x1B 0x22 0xBB 0x01 0x06 0x89 0x82 0x8A 0x83 0xE0 0x22 0x50 0x02 0xE7 0x22 0xBB 0xFE 0x02 0xE3 0x22 0x89 0x82 0x8A 0x83 0xE4 0x93 0x22 0xBB 0x01 0x0C 0xE5 0x82 0x29 0xF5 0x82 0xE5 0x83 0x3A 0xF5 0x83 0xE0 0x22 0x50 0x06 0xE9 0x25 0x82 0xF1 0xA5
write to 0x36 ack data: 0x0A 0x80 
read to 0x36 ack data: 0xF8 0xE6 0x22 0xBB 0xFE 0x06 0xE9 0x25 0x82 0xF8 0xE2 0x22 0xE5 0x82 0x29 0xF5 0x82 0xE5 0x83 0x3A 0xF5 0x83 0xE4 0x93 0x22 0xBB 0x01 0x06 0x89 0x82 0x8A 0x83 0xF0 0x22 0x50 0x02 0xF7 0x22 0xBB 0xFE 0x01 0xF3 0x22 0xBC 0x00 0x0B 0xBE 0x00 0x29 0xEF 0x8D 0xF0 0x84 0xFF 0xAD 0xF0 0x22 0xE4 0xCC 0xF8 0x75 0xF0 0x08 0xEF 0x48 0x36
write to 0x36 ack data: 0x0A 0xC0 
read to 0x36 ack data: 0x2F 0xFF 0xEE 0x33 0xFE 0xEC 0x33 0xFC 0xEE 0x9D 0xEC 0x98 0x40 0x05 0xFC 0xEE 0x9D 0xFE 0x0F 0xD5 0xF0 0xE9 0xE4 0xCE 0xFD 0x22 0xED 0xF8 0xF5 0xF0 0xEE 0x84 0x20 0xD2 0x1C 0xFE 0xAD 0xF0 0x75 0xF0 0x08 0xEF 0x2F 0xFF 0xED 0x33 0xFD 0x40 0x07 0x98 0x50 0x06 0xD5 0xF0 0xF2 0x22 0xC3 0x98 0xFD 0x0F 0xD5 0xF0 0xEA 0x22 0x3F 0xB2
write to 0x36 ack data: 0x0B 0x00 
read to 0x36 ack data: 0xC2 0xD5 0xEC 0x30 0xE7 0x09 0xB2 0xD5 0xE4 0xC3 0x9D 0xFD 0xE4 0x9C 0xFC 0xEE 0x30 0xE7 0x15 0xB2 0xD5 0xE4 0xC3 0x9F 0xFF 0xE4 0x9E 0xFE 0x12 0x0A 0xAB 0xC3 0xE4 0x9D 0xFD 0xE4 0x9C 0xFC 0x80 0x03 0x12 0x0A 0xAB 0x30 0xD5 0x07 0xC3 0xE4 0x9F 0xFF 0xE4 0x9E 0xFE 0x22 0xEC 0x8E 0xF0 0xA4 0xCC 0xC5 0xF0 0xCC 0xCD 0xF8 0x4E 0x9D
write to 0x36 ack data: 0x0B 0x40 
read to 0x36 ack data: 0xEF 0xA4 0xCE 0xC5 0xF0 0x2D 0xFD 0xE4 0x3C 0xFC 0xE8 0xA4 0x2E 0xC8 0xC5 0xF0 0x3D 0xFD 0xE4 0x3C 0xFC 0xEF 0xA4 0xFF 0xE5 0xF0 0x28 0xFE 0xE4 0x3D 0xFD 0xE4 0x3C 0xFC 0x22 0x7B 0x40 0x7D 0x40 0x7F 0x80 0x7E 0x3F 0x12 0x12 0x15 0x7B 0x40 0x7D 0xC0 0x7F 0xC0 0x7E 0x3F 0x12 0x12 0x15 0xE4 0xF5 0x1C 0x7F 0x80 0x7E 0x3F 0x1D 0xDF
write to 0x36 ack data: 0x0B 0x80 
read to 0x36 ack data: 0x12 0x12 0x21 0xE4 0xFF 0x74 0x40 0x2F 0xF8 0xE6 0xFE 0x74 0x80 0x2F 0xF8 0xA6 0x06 0x0F 0xBF 0x40 0xF0 0x7F 0x80 0x7E 0x3F 0x12 0x12 0x1B 0xE4 0xFF 0xEF 0xFD 0x33 0x95 0xE0 0xFC 0xED 0x24 0x80 0xFD 0xEC 0x34 0x3F 0x8D 0x82 0xF5 0x83 0xE0 0xFE 0x74 0x80 0x2F 0xF8 0xE6 0xB5 0x06 0x04 0x0F 0xBF 0x40 0xE1 0xEF 0x64 0x40 0x27 0x26
write to 0x36 ack data: 0x0B 0xC0 
read to 0x36 ack data: 0x70 0x46 0xE4 0xFF 0x74 0xC0 0x2F 0xF8 0xE6 0xFE 0x74 0x80 0x2F 0xF8 0xA6 0x06 0x0F 0xBF 0x40 0xF0 0x78 0xBC 0xE4 0xF6 0x78 0xBF 0xF6 0x7F 0xC0 0x7E 0x3F 0x12 0x12 0x1B 0xE4 0xFF 0xEF 0xFD 0x33 0x95 0xE0 0xFC 0xED 0x24 0xC0 0xFD 0xEC 0x34 0x3F 0x8D 0x82 0xF5 0x83 0xE0 0xFE 0x74 0x80 0x2F 0xF8 0xE6 0xB5 0x06 0x04 0x0F 0x57 0x0F
write to 0x36 ack data: 0x0C 0x00 
read to 0x36 ack data: 0xBF 0x40 0xE1 0xEF 0x64 0x40 0x60 0x0E 0x05 0x1C 0xC3 0xE5 0x1C 0x64 0x80 0x94 0x83 0x50 0x03 0x02 0x0B 0x7C 0xE5 0x1C 0xB4 0x03 0x04 0x7F 0x01 0x80 0x02 0x7F 0x00 0x22 0x53 0x91 0xF9 0x53 0x92 0xF9 0x22 0x43 0x90 0x30 0x22 0xD2 0x94 0xD2 0x95 0xC2 0x94 0xC2 0x95 0x22 0xC2 0x94 0xD2 0x95 0xD2 0x94 0x22 0xC2 0x94 0xD2 0xA9 0x63
write to 0x36 ack data: 0x0C 0x40 
read to 0x36 ack data: 0x95 0xC2 0x95 0xD2 0x94 0x22 0xD2 0x94 0xD2 0x95 0xC2 0x95 0x22 0xD2 0x94 0x43 0x91 0x02 0xD2 0x95 0x33 0xA2 0x91 0xC2 0x95 0x53 0x91 0xFD 0x33 0xFF 0x22 0xEF 0x33 0x92 0x94 0xD2 0x95 0xC2 0x95 0x33 0x92 0x94 0xD2 0x95 0xC2 0x95 0x33 0x92 0x94 0xD2 0x95 0xC2 0x95 0x33 0x92 0x94 0xD2 0x95 0xC2 0x95 0x33 0x92 0x94 0xD2 0x6D 0xFE
write to 0x36 ack data: 0x0C 0x80 
read to 0x36 ack data: 0x95 0xC2 0x95 0x33 0x92 0x94 0xD2 0x95 0xC2 0x95 0x33 0x92 0x94 0xD2 0x95 0xC2 0x95 0x33 0x92 0x94 0xD2 0x95 0xC2 0x95 0x22 0x43 0x91 0x02 0xD2 0x95 0x33 0xA2 0x91 0xC2 0x95 0xD2 0x95 0x33 0xA2 0x91 0xC2 0x95 0xD2 0x95 0x33 0xA2 0x91 0xC2 0x95 0xD2 0x95 0x33 0xA2 0x91 0xC2 0x95 0xD2 0x95 0x33 0xA2 0x91 0xC2 0x95 0xD2 0x71 0x03
write to 0x36 ack data: 0x0C 0xC0 
read to 0x36 ack data: 0x95 0x33 0xA2 0x91 0xC2 0x95 0xD2 0x95 0x33 0xA2 0x91 0xC2 0x95 0xD2 0x95 0x33 0xA2 0x91 0xC2 0x95 0x53 0x91 0xFD 0x33 0xFF 0x22 0x43 0x91 0x01 0x22 0x53 0x91 0xFE 0x22 0x43 0x91 0x02 0x22 0x53 0x91 0xFD 0x22 0x43 0x91 0x04 0x22 0x53 0x91 0xFB 0x22 0x43 0x92 0x01 0x22 0x53 0x92 0xFE 0x22 0x43 0x92 0x02 0x22 0x53 0x92 0x00 0x80
write to 0x36 ack data: 0x0D 0x00 
read to 0x36 ack data: 0xFD 0x22 0x43 0x92 0x04 0x22 0x53 0x92 0xFB 0x22 0x43 0x90 0x08 0x22 0x53 0x90 0xF7 0x22 0xC0 0xE0 0xE5 0x90 0x54 0x08 0x70 0x05 0x12 0x0D 0x0A 0x80 0x03 0x12 0x0D 0x0E 0xD0 0xE0 0x22 0xC0 0xE0 0xE5 0x90 0x54 0x01 0xFF 0xD0 0xE0 0x22 0x43 0x90 0x10 0x22 0x53 0x90 0xEF 0x22 0xC0 0xE0 0xE5 0x90 0x54 0x10 0x70 0x05 0x12 0xA7 0x75
write to 0x36 ack data: 0x0D 0x40 
read to 0x36 ack data: 0x0D 0x2F 0x80 0x03 0x12 0x0D 0x33 0xD0 0xE0 0x22 0xC0 0xE0 0xE5 0x90 0x54 0x02 0xC3 0x13 0xFF 0xD0 0xE0 0x22 0x43 0x90 0x20 0x22 0x53 0x90 0xDF 0x22 0xC0 0xE0 0xE5 0x90 0x54 0x20 0x70 0x05 0x12 0x0D 0x56 0x80 0x03 0x12 0x0D 0x5A 0xD0 0xE0 0x22 0xC0 0xE0 0xE5 0x90 0x54 0x04 0xC3 0x13 0x13 0xFF 0xD0 0xE0 0x22 0x43 0x91 0x00 0xFF
write to 0x36 ack data: 0x0D 0x80 
read to 0x36 ack data: 0x80 0x43 0x80 0x01 0x22 0x53 0x91 0x7F 0x53 0x80 0xFE 0x22 0xC3 0x90 0x60 0x01 0xE0 0x94 0x40 0x90 0x60 0x00 0xE0 0x94 0x38 0x40 0x1B 0x12 0x12 0xEA 0xE4 0x90 0x60 0x00 0xF0 0xA3 0xF0 0x75 0x21 0x01 0x7B 0x09 0xFA 0x7D 0x05 0x7F 0x71 0x7E 0xAF 0x12 0x10 0x4F 0x80 0x10 0x12 0x12 0xC2 0x90 0x60 0x01 0xE0 0x2F 0xF0 0x90 0x58 0x2A
write to 0x36 ack data: 0x0D 0xC0 
read to 0x36 ack data: 0x60 0x00 0xE0 0x34 0x00 0xF0 0xC3 0x90 0x60 0x05 0xE0 0x94 0x84 0x90 0x60 0x04 0xE0 0x94 0x03 0x40 0x0C 0x12 0x13 0x80 0xE4 0x90 0x60 0x04 0xF0 0xA3 0xF0 0x80 0x10 0x12 0x12 0xC2 0x90 0x60 0x05 0xE0 0x2F 0xF0 0x90 0x60 0x04 0xE0 0x34 0x00 0xF0 0xC3 0x90 0x60 0x03 0xE0 0x94 0x84 0x90 0x60 0x02 0xE0 0x94 0x03 0x40 0x0B 0x94 0xAB
write to 0x36 ack data: 0x0E 0x00 
read to 0x36 ack data: 0x12 0x13 0x7D 0xE4 0x90 0x60 0x02 0xF0 0xA3 0xF0 0x22 0x12 0x12 0xC2 0x90 0x60 0x03 0xE0 0x2F 0xF0 0x90 0x60 0x02 0xE0 0x34 0x00 0xF0 0x22 0x78 0x80 0x76 0x02 0xE5 0x31 0x24 0xFE 0x08 0xF6 0x90 0x42 0x27 0xE0 0x08 0xF6 0x90 0x42 0x26 0xE0 0x08 0xF6 0x08 0xE4 0xF6 0x08 0xF6 0x90 0x42 0x25 0xE0 0x08 0xF6 0x90 0x42 0x24 0x68 0xBE
write to 0x36 ack data: 0x0E 0x40 
read to 0x36 ack data: 0xE0 0x08 0xF6 0x08 0x76 0x07 0x08 0x76 0xFF 0x08 0x76 0xFF 0x08 0x76 0xFF 0x12 0x12 0x60 0x08 0xA6 0x07 0x12 0x13 0x6C 0x78 0x8D 0xA6 0x07 0x12 0x13 0x1F 0x78 0x8E 0xA6 0x07 0x12 0x13 0x66 0x78 0x8F 0xA6 0x07 0x08 0x76 0x11 0x08 0x76 0x07 0x08 0x76 0x03 0x08 0x76 0xCE 0x08 0x76 0x85 0x08 0x76 0x0D 0x08 0x76 0x23 0x08 0x41 0xB6
write to 0x36 ack data: 0x0E 0x80 
read to 0x36 ack data: 0x76 0xDE 0x08 0x76 0x13 0x08 0x76 0xA0 0x08 0x76 0x87 0x08 0x76 0x4B 0x08 0x76 0x11 0x08 0x76 0x37 0x08 0x76 0x60 0x08 0x76 0x94 0x08 0x76 0xA0 0x08 0x76 0x5C 0x75 0x31 0x22 0xE5 0x31 0x24 0xFE 0x78 0x81 0xF6 0x22 0x8F 0x24 0x8B 0x25 0x8A 0x26 0x89 0x27 0x12 0x0C 0x2D 0x7F 0xE2 0x12 0x0C 0x5F 0x12 0x0C 0x4D 0xEF 0x20 0x89 0x84
write to 0x36 ack data: 0x0E 0xC0 
read to 0x36 ack data: 0xE0 0x58 0xAF 0x24 0x12 0x0C 0x5F 0x12 0x0C 0x4D 0xEF 0x20 0xE0 0x4C 0x12 0x0C 0x2D 0x7F 0xE3 0x12 0x0C 0x5F 0x12 0x0C 0x4D 0xEF 0x20 0xE0 0x3D 0xAF 0x28 0x15 0x28 0xEF 0x60 0x20 0x12 0x0C 0x99 0xAB 0x25 0xAA 0x26 0xA9 0x27 0xEF 0x12 0x0A 0x99 0x74 0x01 0x25 0x27 0xF5 0x27 0xE4 0x35 0x26 0xF5 0x26 0x12 0x0C 0x3D 0xE5 0xA0 0xA4
write to 0x36 ack data: 0x0F 0x00 
read to 0x36 ack data: 0x28 0xB4 0x01 0xD9 0x12 0x0C 0x99 0xAB 0x25 0xAA 0x26 0xA9 0x27 0xEF 0x12 0x0A 0x99 0x12 0x0C 0x46 0x12 0x0C 0x36 0x7F 0x01 0x22 0x12 0x0C 0x36 0x7F 0x00 0x22 0x90 0x60 0x0A 0xE0 0x04 0xF0 0xC3 0x90 0x60 0x07 0xE0 0x94 0x0F 0x90 0x60 0x06 0xE0 0x94 0x00 0x40 0x1C 0x12 0x08 0x91 0x8E 0x1C 0x8F 0x1D 0x7C 0x00 0x7D 0x19 0x2C 0xF5
write to 0x36 ack data: 0x0F 0x40 
read to 0x36 ack data: 0x12 0x0A 0xAB 0x90 0x60 0x0B 0xEF 0xF0 0xE4 0x90 0x60 0x06 0xF0 0xA3 0xF0 0x80 0x10 0x12 0x12 0xC2 0x90 0x60 0x07 0xE0 0x2F 0xF0 0x90 0x60 0x06 0xE0 0x34 0x00 0xF0 0xC3 0x90 0x60 0x09 0xE0 0x94 0x0F 0x90 0x60 0x08 0xE0 0x94 0x00 0x40 0x10 0x12 0x0F 0xF3 0x90 0x60 0x0C 0xEF 0xF0 0xE4 0x90 0x60 0x08 0xF0 0xA3 0xF0 0x22 0xB5 0xC7
write to 0x36 ack data: 0x0F 0x80 
read to 0x36 ack data: 0x12 0x12 0xC2 0x90 0x60 0x09 0xE0 0x2F 0xF0 0x90 0x60 0x08 0xE0 0x34 0x00 0xF0 0x22 0x8B 0x2A 0x8A 0x2B 0x89 0x2C 0x8C 0x2D 0x8D 0x2E 0x74 0xFF 0xFD 0xFC 0xE4 0xF5 0x2F 0xE5 0x2E 0x15 0x2E 0xAE 0x2D 0x70 0x02 0x15 0x2D 0x4E 0x60 0x3F 0xAB 0x2A 0x05 0x2C 0xE5 0x2C 0xAA 0x2B 0x70 0x02 0x05 0x2B 0x14 0xF9 0x12 0x0A 0x53 0x5E 0x68
write to 0x36 ack data: 0x0F 0xC0 
read to 0x36 ack data: 0xF5 0x2F 0xFE 0xEE 0x62 0x04 0xE4 0xF5 0x30 0xE5 0x30 0xC3 0x94 0x08 0x50 0xD2 0xEC 0x30 0xE7 0x0F 0xED 0x25 0xE0 0xFF 0xEC 0x33 0x64 0x10 0xFC 0xEF 0x64 0x21 0xFD 0x80 0x07 0xED 0x25 0xE0 0xFD 0xEC 0x33 0xFC 0x05 0x30 0x80 0xDB 0xAE 0x04 0xAF 0x05 0x22 0x12 0x08 0x8C 0x8F 0x1E 0x90 0x60 0x16 0xE0 0xFF 0xC3 0xE5 0x1E 0x82 0x4A
write to 0x36 ack data: 0x10 0x00 
read to 0x36 ack data: 0x9F 0xF5 0x1F 0xFF 0x33 0x95 0xE0 0xFE 0x12 0x13 0x4B 0xD3 0xEF 0x94 0x0A 0xEE 0x64 0x80 0x94 0x80 0x40 0x2A 0x12 0x08 0x8C 0x8F 0x1E 0x12 0x08 0x8C 0x8F 0x1F 0xC3 0xE5 0x1F 0x95 0x1E 0xF5 0x1F 0xFF 0x33 0x95 0xE0 0xFE 0x12 0x13 0x4B 0xD3 0xEF 0x94 0x03 0xEE 0x64 0x80 0x94 0x80 0x40 0x06 0x90 0x60 0x16 0xE0 0xF5 0x1E 0x07 0xF7
write to 0x36 ack data: 0x10 0x40 
read to 0x36 ack data: 0xAF 0x1E 0x90 0x60 0x16 0xEF 0xF0 0x90 0x60 0x78 0xF0 0x24 0x14 0xFF 0x22 0x8E 0x1C 0x8F 0x1D 0x8D 0x1E 0x8A 0x1F 0x8B 0x20 0x12 0x0C 0x22 0x12 0x12 0x95 0x7D 0x01 0x7F 0x33 0x12 0x11 0xAE 0x7D 0x1A 0xE4 0xFF 0x12 0x11 0xAE 0x7D 0x95 0x7F 0x07 0x12 0x11 0xAE 0xE5 0x1C 0xFD 0x7F 0x0C 0x12 0x11 0xAE 0xAD 0x1D 0x7F 0x0D 0xEE 0x5E
write to 0x36 ack data: 0x10 0x80 
read to 0x36 ack data: 0x12 0x11 0xAE 0xAD 0x1E 0x7F 0x16 0x12 0x11 0xAE 0xAD 0x20 0x7F 0x17 0x12 0x11 0xAE 0xE5 0x1F 0xFD 0x7F 0x18 0x12 0x11 0xAE 0x7D 0x47 0x7F 0x2A 0x12 0x11 0xAE 0xE5 0x21 0x60 0x03 0x12 0x11 0x3C 0x22 0x8F 0x24 0x8B 0x25 0x8A 0x26 0x89 0x27 0x12 0x0C 0x2D 0x7F 0xE2 0x12 0x0C 0x5F 0x12 0x0C 0x4D 0xEF 0x20 0xE0 0x3A 0xAF 0x6B 0x53
write to 0x36 ack data: 0x10 0xC0 
read to 0x36 ack data: 0x24 0x12 0x0C 0x5F 0x12 0x0C 0x4D 0xEF 0x20 0xE0 0x2E 0xE4 0xF5 0x29 0xE5 0x29 0xC3 0x95 0x28 0x50 0x1E 0xAB 0x25 0xAA 0x26 0xA9 0x27 0x85 0x29 0x82 0x75 0x83 0x00 0x12 0x0A 0x6C 0xFF 0x12 0x0C 0x5F 0x12 0x0C 0x4D 0xEF 0x20 0xE0 0x0A 0x05 0x29 0x80 0xDB 0x12 0x0C 0x36 0x7F 0x01 0x22 0x12 0x0C 0x36 0x7F 0x00 0x22 0xBF 0xD9 0x7F
write to 0x36 ack data: 0x11 0x00 
read to 0x36 ack data: 0x01 0x37 0x12 0x11 0x77 0x90 0x60 0x00 0x74 0x38 0xF0 0xA3 0x74 0x40 0xF0 0xA3 0x74 0x03 0xF0 0xA3 0x74 0x84 0xF0 0xA3 0x74 0x03 0xF0 0xA3 0x74 0x84 0xF0 0xA3 0xE4 0xF0 0xA3 0x74 0x0F 0xF0 0xA3 0xE4 0xF0 0xA3 0x74 0x0F 0xF0 0x12 0x13 0x89 0x12 0x08 0x42 0x12 0x0B 0x63 0xE4 0xF5 0x89 0x02 0x13 0x2F 0x7B 0x00 0x7A 0x00 0xF5 0x61
write to 0x36 ack data: 0x11 0x40 
read to 0x36 ack data: 0x79 0x22 0x75 0x28 0x02 0x7F 0x1D 0x12 0x0E 0xAB 0x43 0x22 0x80 0x43 0x23 0x01 0x7B 0x00 0x7A 0x00 0x79 0x22 0x75 0x28 0x02 0x7F 0x1D 0x12 0x10 0xA8 0x7B 0x00 0x7A 0x00 0x79 0x22 0x75 0x28 0x02 0x7F 0x1D 0x12 0x0E 0xAB 0xE5 0x22 0x20 0xE7 0xED 0xE5 0x23 0x20 0xE0 0xE8 0x22 0x78 0x80 0x74 0x00 0x90 0x60 0x00 0xF0 0xA3 0x41 0x47
write to 0x36 ack data: 0x11 0x80 
read to 0x36 ack data: 0xD8 0xFC 0x79 0x00 0x7A 0x00 0x7B 0x00 0x7C 0x00 0x7D 0x00 0x7E 0x00 0x7F 0x00 0x90 0x60 0x6C 0x74 0x01 0xF0 0x90 0x60 0x76 0x74 0x7F 0xF0 0x90 0x60 0x77 0x74 0xFF 0xF0 0x12 0x09 0x29 0x90 0x60 0x74 0xEE 0xF0 0xA3 0xEF 0xF0 0x22 0x8F 0x23 0x8D 0x24 0x12 0x0C 0x2D 0x7F 0xE2 0x12 0x0C 0x5F 0x12 0x0C 0x4D 0xEF 0x20 0xE0 0xE9 0x72
write to 0x36 ack data: 0x11 0xC0 
read to 0x36 ack data: 0x1E 0xAF 0x23 0x12 0x0C 0x5F 0x12 0x0C 0x4D 0xEF 0x20 0xE0 0x12 0xAF 0x24 0x12 0x0C 0x5F 0x12 0x0C 0x4D 0xEF 0x20 0xE0 0x06 0x12 0x0C 0x36 0x7F 0x01 0x22 0x12 0x0C 0x36 0x7F 0x00 0x22 0x8D 0x1D 0x8B 0x1E 0xAC 0x07 0xEC 0x60 0x20 0x1C 0x12 0x12 0x95 0xAD 0x04 0x7F 0x15 0x12 0x11 0xAE 0x7B 0x00 0x7A 0x00 0x79 0x80 0xAD 0xD1 0x2F
write to 0x36 ack data: 0x12 0x00 
read to 0x36 ack data: 0x1D 0x12 0x12 0x39 0xE5 0x1E 0x44 0x80 0xFD 0x7F 0x1A 0x12 0x11 0xAE 0x22 0x75 0xF0 0x3B 0x02 0x09 0x04 0x75 0xF0 0x3C 0x02 0x09 0x04 0x75 0xF0 0x3D 0x02 0x09 0x04 0x75 0xF0 0x3E 0x02 0x09 0x04 0x75 0xF0 0x40 0x02 0x09 0x04 0x75 0xF0 0x41 0x02 0x09 0x04 0x75 0xF0 0x42 0x02 0x09 0x04 0x8B 0x1F 0x8A 0x20 0x89 0x21 0x8D 0x6E 0x8D
write to 0x36 ack data: 0x12 0x40 
read to 0x36 ack data: 0x22 0xE4 0xFD 0x7F 0x12 0x12 0x11 0xAE 0xE5 0x22 0x44 0x80 0xFD 0x7F 0x11 0x12 0x11 0xAE 0xAB 0x1F 0xAA 0x20 0xA9 0x21 0x85 0x22 0x28 0x7F 0x10 0x02 0x10 0xA8 0x90 0x40 0x00 0xE0 0x90 0x60 0x17 0xF0 0xE5 0x32 0x70 0x09 0x75 0x32 0x01 0xE0 0x24 0x80 0xF0 0x80 0x03 0xE4 0xF5 0x32 0x90 0x60 0x17 0xE0 0xFF 0x22 0x12 0x12 0x43 0xFB
write to 0x36 ack data: 0x12 0x80 
read to 0x36 ack data: 0xC2 0x7E 0x00 0x7C 0x02 0x7D 0x61 0x12 0x0B 0x36 0xE4 0xFB 0xFA 0xFD 0xFC 0x12 0x13 0x83 0x02 0x09 0x17 0x53 0x90 0xDF 0x43 0x90 0x20 0x7F 0x02 0x12 0x13 0x0E 0x53 0x90 0xDF 0x7F 0x13 0x12 0x13 0x0E 0x43 0x90 0x20 0x22 0x41 0x60 0x0A 0x00 0x41 0x60 0x0B 0x00 0x41 0x60 0x0C 0x00 0x01 0x31 0x00 0x41 0x60 0x14 0x00 0x01 0xC6 0xC9
write to 0x36 ack data: 0x12 0xC0 
read to 0x36 ack data: 0x32 0x00 0x90 0x60 0x17 0x74 0x03 0xF0 0xC3 0x94 0x01 0x50 0x03 0x74 0x01 0xF0 0x90 0x60 0x17 0xE0 0xFF 0x22 0xE4 0x90 0x60 0x0D 0xF0 0xA3 0xF0 0xA3 0xF0 0xA3 0xF0 0xA3 0xF0 0xA3 0xF0 0xA3 0xF0 0x02 0x12 0x2D 0x90 0x60 0x15 0xE0 0x60 0x03 0x02 0x08 0xB7 0x12 0x08 0x20 0x90 0x60 0x15 0x74 0x01 0xF0 0x22 0xAD 0x07 0xAC 0x2E 0xD6
write to 0x36 ack data: 0x13 0x00 
read to 0x36 ack data: 0x06 0xC2 0xEA 0x8C 0xAF 0xED 0xF5 0xAE 0x43 0xB1 0x40 0xD2 0xEA 0x22 0xE4 0xFE 0xEE 0xC3 0x9F 0x50 0x09 0xE4 0xFD 0x0D 0xBD 0x0F 0xFC 0x0E 0x80 0xF2 0x22 0x12 0x08 0x91 0x7C 0x00 0x7D 0x19 0x12 0x0A 0xAB 0x90 0x60 0x17 0xEF 0xF0 0x22 0x12 0x0D 0x8C 0x12 0x0F 0x20 0x12 0x13 0x78 0x12 0x12 0x7E 0x80 0xF2 0x8F 0x1C 0x12 0xD6 0xD7
write to 0x36 ack data: 0x13 0x40 
read to 0x36 ack data: 0x0E 0x1C 0x7B 0x07 0xAD 0x31 0xAF 0x1C 0x02 0x11 0xE5 0xEE 0x30 0xE7 0x07 0xC3 0xE4 0x9F 0xFF 0xE4 0x9E 0xFE 0x22 0xAF 0xAF 0xEF 0xFE 0xAD 0xAE 0xED 0xFF 0x22 0x90 0x60 0x0B 0xE0 0xFF 0x22 0x90 0x60 0x0C 0xE0 0xFF 0x22 0x90 0x60 0x0A 0xE0 0xFF 0x22 0xE4 0xF5 0xAF 0xF5 0xAE 0x22 0x7F 0x01 0x02 0x13 0x3D 0x02 0x08 0x72 0xA4 0x72
write to 0x36 ack data: 0x13 0x80 
read to 0x36 ack data: 0x02 0x08 0x10 0x02 0x08 0xD7 0xD2 0xC1 0x22 0xC2 0xC1 0x22 0xC2 0xEA 0x22 0xFF 0xFF 0xFF 0xFF 0xFF 0xFF 0xFF 0xFF 0xFF 0xFF 0xFF 0xFF 0xFF 0xFF 0xFF 0xFF 0xFF 0xFF 0xFF 0xFF 0xFF 0xFF 0xFF 0xFF 0xFF 0xFF 0xFF 0xFF 0xFF 0xFF 0xFF 0xFF 0xFF 0xFF 0xFF 0xFF 0xFF 0xFF 0xFF 0xFF 0xFF 0xFF 0xFF 0xFF 0xFF 0xFF 0xFF 0xFF 0xFF 0x0B 0xDC
write to 0x36 ack data: 0x13 0xC0 
read to 0x36 ack data: 0xFF 0xFF 0xFF 0xFF 0xFF 0xFF 0xFF 0xFF 0xFF 0xFF 0xFF 0xFF 0xFF 0xFF 0xFF 0xFF 0xFF 0xFF 0xFF 0xFF 0xFF 0xFF 0xFF 0xFF 0xFF 0xFF 0xFF 0xFF 0xFF 0xFF 0xFF 0xFF 0xFF 0xFF 0xFF 0xFF 0xFF 0xFF 0xFF 0xFF 0xFF 0xFF 0xFF 0xFF 0xFF 0xFF 0xFF 0xFF 0xFF 0xFF 0xFF 0xFF 0xFF 0xFF 0xFF 0xFF 0xFF 0xFF 0xFF 0xFF 0xFF 0xFF 0xFF 0xFF 0xF1 0x54
write to 0x36 ack data: 0x14 0x00 
read to 0x36 ack data: 0xFF 0xFF 0xFF 0xFF 0xFF 0xFF 0xFF 0xFF 0xFF 0xFF 0xFF 0xFF 0xFF 0xFF 0xFF 0xFF 0xFF 0xFF 0xFF 0xFF 0xFF 0xFF 0xFF 0xFF 0xFF 0xFF 0xFF 0xFF 0xFF 0xFF 0xFF 0xFF 0xFF 0xFF 0xFF 0xFF 0xFF 0xFF 0xFF 0xFF 0xFF 0xFF 0xFF 0xFF 0xFF 0xFF 0xFF 0xFF 0xFF 0xFF 0xFF 0xFF 0xFF 0xFF 0xFF 0xFF 0xFF 0xFF 0xFF 0xFF 0xFF 0xFF 0xFF 0xFF 0xF1 0x54
write to 0x36 ack data: 0x14 0x40 
read to 0x36 ack data: 0xFF 0xFF 0xFF 0xFF 0xFF 0xFF 0xFF 0xFF 0xFF 0xFF 0xFF 0xFF 0xFF 0xFF 0xFF 0xFF 0xFF 0xFF 0xFF 0xFF 0xFF 0xFF 0xFF 0xFF 0xFF 0xFF 0xFF 0xFF 0xFF 0xFF 0xFF 0xFF 0xFF 0xFF 0xFF 0xFF 0xFF 0xFF 0xFF 0xFF 0xFF 0xFF 0xFF 0xFF 0xFF 0xFF 0xFF 0xFF 0xFF 0xFF 0xFF 0xFF 0xFF 0xFF 0xFF 0xFF 0xFF 0xFF 0xFF 0xFF 0xFF 0xFF 0xFF 0xFF 0xF1 0x54
write to 0x36 ack data: 0x14 0x80 
read to 0x36 ack data: 0xFF 0xFF 0xFF 0xFF 0xFF 0xFF 0xFF 0xFF 0xFF 0xFF 0xFF 0xFF 0xFF 0xFF 0xFF 0xFF 0xFF 0xFF 0xFF 0xFF 0xFF 0xFF 0xFF 0xFF 0xFF 0xFF 0xFF 0xFF 0xFF 0xFF 0xFF 0xFF 0xFF 0xFF 0xFF 0xFF 0xFF 0xFF 0xFF 0xFF 0xFF 0xFF 0xFF 0xFF 0xFF 0xFF 0xFF 0xFF 0xFF 0xFF 0xFF 0xFF 0xFF 0xFF 0xFF 0xFF 0xFF 0xFF 0xFF 0xFF 0xFF 0xFF 0xFF 0xFF 0xF1 0x54
write to 0x36 ack data: 0x14 0xC0 
read to 0x36 ack data: 0xFF 0xFF 0xFF 0xFF 0xFF 0xFF 0xFF 0xFF 0xFF 0xFF 0xFF 0xFF 0xFF 0xFF 0xFF 0xFF 0xFF 0xFF 0xFF 0xFF 0xFF 0xFF 0xFF 0xFF 0xFF 0xFF 0xFF 0xFF 0xFF 0xFF 0xFF 0xFF 0xFF 0xFF 0xFF 0xFF 0xFF 0xFF 0xFF 0xFF 0xFF 0xFF 0xFF 0xFF 0xFF 0xFF 0xFF 0xFF 0xFF 0xFF 0xFF 0xFF 0xFF 0xFF 0xFF 0xFF 0xFF 0xFF 0xFF 0xFF 0xFF 0xFF 0xFF 0xFF 0xF1 0x54
write to 0x36 ack data: 0x15 0x00 
read to 0x36 ack data: 0xFF 0xFF 0xFF 0xFF 0xFF 0xFF 0xFF 0xFF 0xFF 0xFF 0xFF 0xFF 0xFF 0xFF 0xFF 0xFF 0xFF 0xFF 0xFF 0xFF 0xFF 0xFF 0xFF 0xFF 0xFF 0xFF 0xFF 0xFF 0xFF 0xFF 0xFF 0xFF 0xFF 0xFF 0xFF 0xFF 0xFF 0xFF 0xFF 0xFF 0xFF 0xFF 0xFF 0xFF 0xFF 0xFF 0xFF 0xFF 0xFF 0xFF 0xFF 0xFF 0xFF 0xFF 0xFF 0xFF 0xFF 0xFF 0xFF 0xFF 0xFF 0xFF 0xFF 0xFF 0xF1 0x54
write to 0x36 ack data: 0x15 0x40 
read to 0x36 ack data: 0xFF 0xFF 0xFF 0xFF 0xFF 0xFF 0xFF 0xFF 0xFF 0xFF 0xFF 0xFF 0xFF 0xFF 0xFF 0xFF 0xFF 0xFF 0xFF 0xFF 0xFF 0xFF 0xFF 0xFF 0xFF 0xFF 0xFF 0xFF 0xFF 0xFF 0xFF 0xFF 0xFF 0xFF 0xFF 0xFF 0xFF 0xFF 0xFF 0xFF 0xFF 0xFF 0xFF 0xFF 0xFF 0xFF 0xFF 0xFF 0xFF 0xFF 0xFF 0xFF 0xFF 0xFF 0xFF 0xFF 0xFF 0xFF 0xFF 0xFF 0xFF 0xFF 0xFF 0xFF 0xF1 0x54
write to 0x36 ack data: 0x15 0x80 
read to 0x36 ack data: 0xFF 0xFF 0xFF 0xFF 0xFF 0xFF 0xFF 0xFF 0xFF 0xFF 0xFF 0xFF 0xFF 0xFF 0xFF 0xFF 0xFF 0xFF 0xFF 0xFF 0xFF 0xFF 0xFF 0xFF 0xFF 0xFF 0xFF 0xFF 0xFF 0xFF 0xFF 0xFF 0xFF 0xFF 0xFF 0xFF 0xFF 0xFF 0xFF 0xFF 0xFF 0xFF 0xFF 0xFF 0xFF 0xFF 0xFF 0xFF 0xFF 0xFF 0xFF 0xFF 0xFF 0xFF 0xFF 0xFF 0xFF 0xFF 0xFF 0xFF 0xFF 0xFF 0xFF 0xFF 0xF1 0x54
write to 0x36 ack data: 0x15 0xC0 
read to 0x36 ack data: 0xFF 0xFF 0xFF 0xFF 0xFF 0xFF 0xFF 0xFF 0xFF 0xFF 0xFF 0xFF 0xFF 0xFF 0xFF 0xFF 0xFF 0xFF 0xFF 0xFF 0xFF 0xFF 0xFF 0xFF 0xFF 0xFF 0xFF 0xFF 0xFF 0xFF 0xFF 0xFF 0xFF 0xFF 0xFF 0xFF 0xFF 0xFF 0xFF 0xFF 0xFF 0xFF 0xFF 0xFF 0xFF 0xFF 0xFF 0xFF 0xFF 0xFF 0xFF 0xFF 0xFF 0xFF 0xFF 0xFF 0xFF 0xFF 0xFF 0xFF 0xFF 0xFF 0xFF 0xFF 0xF1 0x54
write to 0x36 ack data: 0x16 0x00 
read to 0x36 ack data: 0xFF 0xFF 0xFF 0xFF 0xFF 0xFF 0xFF 0xFF 0xFF 0xFF 0xFF 0xFF 0xFF 0xFF 0xFF 0xFF 0xFF 0xFF 0xFF 0xFF 0xFF 0xFF 0xFF 0xFF 0xFF 0xFF 0xFF 0xFF 0xFF 0xFF 0xFF 0xFF 0xFF 0xFF 0xFF 0xFF 0xFF 0xFF 0xFF 0xFF 0xFF 0xFF 0xFF 0xFF 0xFF 0xFF 0xFF 0xFF 0xFF 0xFF 0xFF 0xFF 0xFF 0xFF 0xFF 0xFF 0xFF 0xFF 0xFF 0xFF 0xFF 0xFF 0xFF 0xFF 0xF1 0x54
write to 0x36 ack data: 0x16 0x40 
read to 0x36 ack data: 0xFF 0xFF 0xFF 0xFF 0xFF 0xFF 0xFF 0xFF 0xFF 0xFF 0xFF 0xFF 0xFF 0xFF 0xFF 0xFF 0xFF 0xFF 0xFF 0xFF 0xFF 0xFF 0xFF 0xFF 0xFF 0xFF 0xFF 0xFF 0xFF 0xFF 0xFF 0xFF 0xFF 0xFF 0xFF 0xFF 0xFF 0xFF 0xFF 0xFF 0xFF 0xFF 0xFF 0xFF 0xFF 0xFF 0xFF 0xFF 0xFF 0xFF 0xFF 0xFF 0xFF 0xFF 0xFF 0xFF 0xFF 0xFF 0xFF 0xFF 0xFF 0xFF 0xFF 0xFF 0xF1 0x54
write to 0x36 ack data: 0x16 0x80 
read to 0x36 ack data: 0xFF 0xFF 0xFF 0xFF 0xFF 0xFF 0xFF 0xFF 0xFF 0xFF 0xFF 0xFF 0xFF 0xFF 0xFF 0xFF 0xFF 0xFF 0xFF 0xFF 0xFF 0xFF 0xFF 0xFF 0xFF 0xFF 0xFF 0xFF 0xFF 0xFF 0xFF 0xFF 0xFF 0xFF 0xFF 0xFF 0xFF 0xFF 0xFF 0xFF 0xFF 0xFF 0xFF 0xFF 0xFF 0xFF 0xFF 0xFF 0xFF 0xFF 0xFF 0xFF 0xFF 0xFF 0xFF 0xFF 0xFF 0xFF 0xFF 0xFF 0xFF 0xFF 0xFF 0xFF 0xF1 0x54
write to 0x36 ack data: 0x16 0xC0 
read to 0x36 ack data: 0xFF 0xFF 0xFF 0xFF 0xFF 0xFF 0xFF 0xFF 0xFF 0xFF 0xFF 0xFF 0xFF 0xFF 0xFF 0xFF 0xFF 0xFF 0xFF 0xFF 0xFF 0xFF 0xFF 0xFF 0xFF 0xFF 0xFF 0xFF 0xFF 0xFF 0xFF 0xFF 0xFF 0xFF 0xFF 0xFF 0xFF 0xFF 0xFF 0xFF 0xFF 0xFF 0xFF 0xFF 0xFF 0xFF 0xFF 0xFF 0xFF 0xFF 0xFF 0xFF 0xFF 0xFF 0xFF 0xFF 0xFF 0xFF 0xFF 0xFF 0xFF 0xFF 0xFF 0xFF 0xF1 0x54
write to 0x36 ack data: 0x17 0x00 
read to 0x36 ack data: 0xFF 0xFF 0xFF 0xFF 0xFF 0xFF 0xFF 0xFF 0xFF 0xFF 0xFF 0xFF 0xFF 0xFF 0xFF 0xFF 0xFF 0xFF 0xFF 0xFF 0xFF 0xFF 0xFF 0xFF 0xFF 0xFF 0xFF 0xFF 0xFF 0xFF 0xFF 0xFF 0xFF 0xFF 0xFF 0xFF 0xFF 0xFF 0xFF 0xFF 0xFF 0xFF 0xFF 0xFF 0xFF 0xFF 0xFF 0xFF 0xFF 0xFF 0xFF 0xFF 0xFF 0xFF 0xFF 0xFF 0xFF 0xFF 0xFF 0xFF 0xFF 0xFF 0xFF 0xFF 0xF1 0x54
write to 0x36 ack data: 0x17 0x40 
read to 0x36 ack data: 0xFF 0xFF 0xFF 0xFF 0xFF 0xFF 0xFF 0xFF 0xFF 0xFF 0xFF 0xFF 0xFF 0xFF 0xFF 0xFF 0xFF 0xFF 0xFF 0xFF 0xFF 0xFF 0xFF 0xFF 0xFF 0xFF 0xFF 0xFF 0xFF 0xFF 0xFF 0xFF 0xFF 0xFF 0xFF 0xFF 0xFF 0xFF 0xFF 0xFF 0xFF 0xFF 0xFF 0xFF 0xFF 0xFF 0xFF 0xFF 0xFF 0xFF 0xFF 0xFF 0xFF 0xFF 0xFF 0xFF 0xFF 0xFF 0xFF 0xFF 0xFF 0xFF 0xFF 0xFF 0xF1 0x54
write to 0x36 ack data: 0x17 0x80 
read to 0x36 ack data: 0xFF 0xFF 0xFF 0xFF 0xFF 0xFF 0xFF 0xFF 0xFF 0xFF 0xFF 0xFF 0xFF 0xFF 0xFF 0xFF 0xFF 0xFF 0xFF 0xFF 0xFF 0xFF 0xFF 0xFF 0xFF 0xFF 0xFF 0xFF 0xFF 0xFF 0xFF 0xFF 0xFF 0xFF 0xFF 0xFF 0xFF 0xFF 0xFF 0xFF 0xFF 0xFF 0xFF 0xFF 0xFF 0xFF 0xFF 0xFF 0xFF 0xFF 0xFF 0xFF 0xFF 0xFF 0xFF 0xFF 0xFF 0xFF 0xFF 0xFF 0xFF 0xFF 0xFF 0xFF 0xF1 0x54
write to 0x36 ack data: 0x17 0xC0 
read to 0x36 ack data: 0xFF 0xFF 0xFF 0xFF 0xFF 0xFF 0xFF 0xFF 0xFF 0xFF 0xFF 0xFF 0xFF 0xFF 0xFF 0xFF 0xFF 0xFF 0xFF 0xFF 0xFF 0xFF 0xFF 0xFF 0xFF 0xFF 0xFF 0xFF 0xFF 0xFF 0xFF 0xFF 0xFF 0xFF 0xFF 0xFF 0xFF 0xFF 0xFF 0xFF 0xFF 0xFF 0xFF 0xFF 0xFF 0xFF 0xFF 0xFF 0xFF 0xFF 0xFF 0xFF 0xFF 0xFF 0xFF 0xFF 0xFF 0xFF 0xFF 0xFF 0xFF 0xFF 0xFF 0xFF 0xF1 0x54
write to 0x36 ack data: 0x18 0x00 
read to 0x36 ack data: 0xFF 0xFF 0xFF 0xFF 0xFF 0xFF 0xFF 0xFF 0xFF 0xFF 0xFF 0xFF 0xFF 0xFF 0xFF 0xFF 0xFF 0xFF 0xFF 0xFF 0xFF 0xFF 0xFF 0xFF 0xFF 0xFF 0xFF 0xFF 0xFF 0xFF 0xFF 0xFF 0xFF 0xFF 0xFF 0xFF 0xFF 0xFF 0xFF 0xFF 0xFF 0xFF 0xFF 0xFF 0xFF 0xFF 0xFF 0xFF 0xFF 0xFF 0xFF 0xFF 0xFF 0xFF 0xFF 0xFF 0xFF 0xFF 0xFF 0xFF 0xFF 0xFF 0xFF 0xFF 0xF1 0x54
write to 0x36 ack data: 0x18 0x40 
read to 0x36 ack data: 0xFF 0xFF 0xFF 0xFF 0xFF 0xFF 0xFF 0xFF 0xFF 0xFF 0xFF 0xFF 0xFF 0xFF 0xFF 0xFF 0xFF 0xFF 0xFF 0xFF 0xFF 0xFF 0xFF 0xFF 0xFF 0xFF 0xFF 0xFF 0xFF 0xFF 0xFF 0xFF 0xFF 0xFF 0xFF 0xFF 0xFF 0xFF 0xFF 0xFF 0xFF 0xFF 0xFF 0xFF 0xFF 0xFF 0xFF 0xFF 0xFF 0xFF 0xFF 0xFF 0xFF 0xFF 0xFF 0xFF 0xFF 0xFF 0xFF 0xFF 0xFF 0xFF 0xFF 0xFF 0xF1 0x54
write to 0x36 ack data: 0x18 0x80 
read to 0x36 ack data: 0xFF 0xFF 0xFF 0xFF 0xFF 0xFF 0xFF 0xFF 0xFF 0xFF 0xFF 0xFF 0xFF 0xFF 0xFF 0xFF 0xFF 0xFF 0xFF 0xFF 0xFF 0xFF 0xFF 0xFF 0xFF 0xFF 0xFF 0xFF 0xFF 0xFF 0xFF 0xFF 0xFF 0xFF 0xFF 0xFF 0xFF 0xFF 0xFF 0xFF 0xFF 0xFF 0xFF 0xFF 0xFF 0xFF 0xFF 0xFF 0xFF 0xFF 0xFF 0xFF 0xFF 0xFF 0xFF 0xFF 0xFF 0xFF 0xFF 0xFF 0xFF 0xFF 0xFF 0xFF 0xF1 0x54
write to 0x36 ack data: 0x18 0xC0 
read to 0x36 ack data: 0xFF 0xFF 0xFF 0xFF 0xFF 0xFF 0xFF 0xFF 0xFF 0xFF 0xFF 0xFF 0xFF 0xFF 0xFF 0xFF 0xFF 0xFF 0xFF 0xFF 0xFF 0xFF 0xFF 0xFF 0xFF 0xFF 0xFF 0xFF 0xFF 0xFF 0xFF 0xFF 0xFF 0xFF 0xFF 0xFF 0xFF 0xFF 0xFF 0xFF 0xFF 0xFF 0xFF 0xFF 0xFF 0xFF 0xFF 0xFF 0xFF 0xFF 0xFF 0xFF 0xFF 0xFF 0xFF 0xFF 0xFF 0xFF 0xFF 0xFF 0xFF 0xFF 0xFF 0xFF 0xF1 0x54
write to 0x36 ack data: 0x19 0x00 
read to 0x36 ack data: 0xFF 0xFF 0xFF 0xFF 0xFF 0xFF 0xFF 0xFF 0xFF 0xFF 0xFF 0xFF 0xFF 0xFF 0xFF 0xFF 0xFF 0xFF 0xFF 0xFF 0xFF 0xFF 0xFF 0xFF 0xFF 0xFF 0xFF 0xFF 0xFF 0xFF 0xFF 0xFF 0xFF 0xFF 0xFF 0xFF 0xFF 0xFF 0xFF 0xFF 0xFF 0xFF 0xFF 0xFF 0xFF 0xFF 0xFF 0xFF 0xFF 0xFF 0xFF 0xFF 0xFF 0xFF 0xFF 0xFF 0xFF 0xFF 0xFF 0xFF 0xFF 0xFF 0xFF 0xFF 0xF1 0x54
write to 0x36 ack data: 0x19 0x40 
read to 0x36 ack data: 0xFF 0xFF 0xFF 0xFF 0xFF 0xFF 0xFF 0xFF 0xFF 0xFF 0xFF 0xFF 0xFF 0xFF 0xFF 0xFF 0xFF 0xFF 0xFF 0xFF 0xFF 0xFF 0xFF 0xFF 0xFF 0xFF 0xFF 0xFF 0xFF 0xFF 0xFF 0xFF 0xFF 0xFF 0xFF 0xFF 0xFF 0xFF 0xFF 0xFF 0xFF 0xFF 0xFF 0xFF 0xFF 0xFF 0xFF 0xFF 0xFF 0xFF 0xFF 0xFF 0xFF 0xFF 0xFF 0xFF 0xFF 0xFF 0xFF 0xFF 0xFF 0xFF 0xFF 0xFF 0xF1 0x54
write to 0x36 ack data: 0x19 0x80 
read to 0x36 ack data: 0xFF 0xFF 0xFF 0xFF 0xFF 0xFF 0xFF 0xFF 0xFF 0xFF 0xFF 0xFF 0xFF 0xFF 0xFF 0xFF 0xFF 0xFF 0xFF 0xFF 0xFF 0xFF 0xFF 0xFF 0xFF 0xFF 0xFF 0xFF 0xFF 0xFF 0xFF 0xFF 0xFF 0xFF 0xFF 0xFF 0xFF 0xFF 0xFF 0xFF 0xFF 0xFF 0xFF 0xFF 0xFF 0xFF 0xFF 0xFF 0xFF 0xFF 0xFF 0xFF 0xFF 0xFF 0xFF 0xFF 0xFF 0xFF 0xFF 0xFF 0xFF 0xFF 0xFF 0xFF 0xF1 0x54
write to 0x36 ack data: 0x19 0xC0 
read to 0x36 ack data: 0xFF 0xFF 0xFF 0xFF 0xFF 0xFF 0xFF 0xFF 0xFF 0xFF 0xFF 0xFF 0xFF 0xFF 0xFF 0xFF 0xFF 0xFF 0xFF 0xFF 0xFF 0xFF 0xFF 0xFF 0xFF 0xFF 0xFF 0xFF 0xFF 0xFF 0xFF 0xFF 0xFF 0xFF 0xFF 0xFF 0xFF 0xFF 0xFF 0xFF 0xFF 0xFF 0xFF 0xFF 0xFF 0xFF 0xFF 0xFF 0xFF 0xFF 0xFF 0xFF 0xFF 0xFF 0xFF 0xFF 0xFF 0xFF 0xFF 0xFF 0xFF 0xFF 0xFF 0xFF 0xF1 0x54
write to 0x36 ack data: 0x1A 0x00 
read to 0x36 ack data: 0xFF 0xFF 0xFF 0xFF 0xFF 0xFF 0xFF 0xFF 0xFF 0xFF 0xFF 0xFF 0xFF 0xFF 0xFF 0xFF 0xFF 0xFF 0xFF 0xFF 0xFF 0xFF 0xFF 0xFF 0xFF 0xFF 0xFF 0xFF 0xFF 0xFF 0xFF 0xFF 0xFF 0xFF 0xFF 0xFF 0xFF 0xFF 0xFF 0xFF 0xFF 0xFF 0xFF 0xFF 0xFF 0xFF 0xFF 0xFF 0xFF 0xFF 0xFF 0xFF 0xFF 0xFF 0xFF 0xFF 0xFF 0xFF 0xFF 0xFF 0xFF 0xFF 0xFF 0xFF 0xF1 0x54
write to 0x36 ack data: 0x1A 0x40 
read to 0x36 ack data: 0xFF 0xFF 0xFF 0xFF 0xFF 0xFF 0xFF 0xFF 0xFF 0xFF 0xFF 0xFF 0xFF 0xFF 0xFF 0xFF 0xFF 0xFF 0xFF 0xFF 0xFF 0xFF 0xFF 0xFF 0xFF 0xFF 0xFF 0xFF 0xFF 0xFF 0xFF 0xFF 0xFF 0xFF 0xFF 0xFF 0xFF 0xFF 0xFF 0xFF 0xFF 0xFF 0xFF 0xFF 0xFF 0xFF 0xFF 0xFF 0xFF 0xFF 0xFF 0xFF 0xFF 0xFF 0xFF 0xFF 0xFF 0xFF 0xFF 0xFF 0xFF 0xFF 0xFF 0xFF 0xF1 0x54
write to 0x36 ack data: 0x1A 0x80 
read to 0x36 ack data: 0xFF 0xFF 0xFF 0xFF 0xFF 0xFF 0xFF 0xFF 0xFF 0xFF 0xFF 0xFF 0xFF 0xFF 0xFF 0xFF 0xFF 0xFF 0xFF 0xFF 0xFF 0xFF 0xFF 0xFF 0xFF 0xFF 0xFF 0xFF 0xFF 0xFF 0xFF 0xFF 0xFF 0xFF 0xFF 0xFF 0xFF 0xFF 0xFF 0xFF 0xFF 0xFF 0xFF 0xFF 0xFF 0xFF 0xFF 0xFF 0xFF 0xFF 0xFF 0xFF 0xFF 0xFF 0xFF 0xFF 0xFF 0xFF 0xFF 0xFF 0xFF 0xFF 0xFF 0xFF 0xF1 0x54
write to 0x36 ack data: 0x1A 0xC0 
read to 0x36 ack data: 0xFF 0xFF 0xFF 0xFF 0xFF 0xFF 0xFF 0xFF 0xFF 0xFF 0xFF 0xFF 0xFF 0xFF 0xFF 0xFF 0xFF 0xFF 0xFF 0xFF 0xFF 0xFF 0xFF 0xFF 0xFF 0xFF 0xFF 0xFF 0xFF 0xFF 0xFF 0xFF 0xFF 0xFF 0xFF 0xFF 0xFF 0xFF 0xFF 0xFF 0xFF 0xFF 0xFF 0xFF 0xFF 0xFF 0xFF 0xFF 0xFF 0xFF 0xFF 0xFF 0xFF 0xFF 0xFF 0xFF 0xFF 0xFF 0xFF 0xFF 0xFF 0xFF 0xFF 0xFF 0xF1 0x54
write to 0x36 ack data: 0x1B 0x00 
read to 0x36 ack data: 0xFF 0xFF 0xFF 0xFF 0xFF 0xFF 0xFF 0xFF 0xFF 0xFF 0xFF 0xFF 0xFF 0xFF 0xFF 0xFF 0xFF 0xFF 0xFF 0xFF 0xFF 0xFF 0xFF 0xFF 0xFF 0xFF 0xFF 0xFF 0xFF 0xFF 0xFF 0xFF 0xFF 0xFF 0xFF 0xFF 0xFF 0xFF 0xFF 0xFF 0xFF 0xFF 0xFF 0xFF 0xFF 0xFF 0xFF 0xFF 0xFF 0xFF 0xFF 0xFF 0xFF 0xFF 0xFF 0xFF 0xFF 0xFF 0xFF 0xFF 0xFF 0xFF 0xFF 0xFF 0xF1 0x54
write to 0x36 ack data: 0x1B 0x40 
read to 0x36 ack data: 0xFF 0xFF 0xFF 0xFF 0xFF 0xFF 0xFF 0xFF 0xFF 0xFF 0xFF 0xFF 0xFF 0xFF 0xFF 0xFF 0xFF 0xFF 0xFF 0xFF 0xFF 0xFF 0xFF 0xFF 0xFF 0xFF 0xFF 0xFF 0xFF 0xFF 0xFF 0xFF 0xFF 0xFF 0xFF 0xFF 0xFF 0xFF 0xFF 0xFF 0xFF 0xFF 0xFF 0xFF 0xFF 0xFF 0xFF 0xFF 0xFF 0xFF 0xFF 0xFF 0xFF 0xFF 0xFF 0xFF 0xFF 0xFF 0xFF 0xFF 0xFF 0xFF 0xFF 0xFF 0xF1 0x54
write to 0x36 ack data: 0x1B 0x80 
read to 0x36 ack data: 0xFF 0xFF 0xFF 0xFF 0xFF 0xFF 0xFF 0xFF 0xFF 0xFF 0xFF 0xFF 0xFF 0xFF 0xFF 0xFF 0xFF 0xFF 0xFF 0xFF 0xFF 0xFF 0xFF 0xFF 0xFF 0xFF 0xFF 0xFF 0xFF 0xFF 0xFF 0xFF 0xFF 0xFF 0xFF 0xFF 0xFF 0xFF 0xFF 0xFF 0xFF 0xFF 0xFF 0xFF 0xFF 0xFF 0xFF 0xFF 0xFF 0xFF 0xFF 0xFF 0xFF 0xFF 0xFF 0xFF 0xFF 0xFF 0xFF 0xFF 0xFF 0xFF 0xFF 0xFF 0xF1 0x54
write to 0x36 ack data: 0x1B 0xC0 
read to 0x36 ack data: 0xFF 0xFF 0xFF 0xFF 0xFF 0xFF 0xFF 0xFF 0xFF 0xFF 0xFF 0xFF 0xFF 0xFF 0xFF 0xFF 0xFF 0xFF 0xFF 0xFF 0xFF 0xFF 0xFF 0xFF 0xFF 0xFF 0xFF 0xFF 0xFF 0xFF 0xFF 0xFF 0xFF 0xFF 0xFF 0xFF 0xFF 0xFF 0xFF 0xFF 0xFF 0xFF 0xFF 0xFF 0xFF 0xFF 0xFF 0xFF 0xFF 0xFF 0xFF 0xFF 0xFF 0xFF 0xFF 0xFF 0xFF 0xFF 0xFF 0xFF 0xFF 0xFF 0xFF 0xFF 0xF1 0x54
write to 0x36 ack data: 0x1C 0x00 
read to 0x36 ack data: 0xFF 0xFF 0xFF 0xFF 0xFF 0xFF 0xFF 0xFF 0xFF 0xFF 0xFF 0xFF 0xFF 0xFF 0xFF 0xFF 0xFF 0xFF 0xFF 0xFF 0xFF 0xFF 0xFF 0xFF 0xFF 0xFF 0xFF 0xFF 0xFF 0xFF 0xFF 0xFF 0xFF 0xFF 0xFF 0xFF 0xFF 0xFF 0xFF 0xFF 0xFF 0xFF 0xFF 0xFF 0xFF 0xFF 0xFF 0xFF 0xFF 0xFF 0xFF 0xFF 0xFF 0xFF 0xFF 0xFF 0xFF 0xFF 0xFF 0xFF 0xFF 0xFF 0xFF 0xFF 0xF1 0x54
write to 0x36 ack data: 0x1C 0x40 
read to 0x36 ack data: 0xFF 0xFF 0xFF 0xFF 0xFF 0xFF 0xFF 0xFF 0xFF 0xFF 0xFF 0xFF 0xFF 0xFF 0xFF 0xFF 0xFF 0xFF 0xFF 0xFF 0xFF 0xFF 0xFF 0xFF 0xFF 0xFF 0xFF 0xFF 0xFF 0xFF 0xFF 0xFF 0xFF 0xFF 0xFF 0xFF 0xFF 0xFF 0xFF 0xFF 0xFF 0xFF 0xFF 0xFF 0xFF 0xFF 0xFF 0xFF 0xFF 0xFF 0xFF 0xFF 0xFF 0xFF 0xFF 0xFF 0xFF 0xFF 0xFF 0xFF 0xFF 0xFF 0xFF 0xFF 0xF1 0x54
write to 0x36 ack data: 0x1C 0x80 
read to 0x36 ack data: 0xFF 0xFF 0xFF 0xFF 0xFF 0xFF 0xFF 0xFF 0xFF 0xFF 0xFF 0xFF 0xFF 0xFF 0xFF 0xFF 0xFF 0xFF 0xFF 0xFF 0xFF 0xFF 0xFF 0xFF 0xFF 0xFF 0xFF 0xFF 0xFF 0xFF 0xFF 0xFF 0xFF 0xFF 0xFF 0xFF 0xFF 0xFF 0xFF 0xFF 0xFF 0xFF 0xFF 0xFF 0xFF 0xFF 0xFF 0xFF 0xFF 0xFF 0xFF 0xFF 0xFF 0xFF 0xFF 0xFF 0xFF 0xFF 0xFF 0xFF 0xFF 0xFF 0xFF 0xFF 0xF1 0x54
write to 0x36 ack data: 0x1C 0xC0 
read to 0x36 ack data: 0xFF 0xFF 0xFF 0xFF 0xFF 0xFF 0xFF 0xFF 0xFF 0xFF 0xFF 0xFF 0xFF 0xFF 0xFF 0xFF 0xFF 0xFF 0xFF 0xFF 0xFF 0xFF 0xFF 0xFF 0xFF 0xFF 0xFF 0xFF 0xFF 0xFF 0xFF 0xFF 0xFF 0xFF 0xFF 0xFF 0xFF 0xFF 0xFF 0xFF 0xFF 0xFF 0xFF 0xFF 0xFF 0xFF 0xFF 0xFF 0xFF 0xFF 0xFF 0xFF 0xFF 0xFF 0xFF 0xFF 0xFF 0xFF 0xFF 0xFF 0xFF 0xFF 0xFF 0xFF 0xF1 0x54
write to 0x36 ack data: 0x1D 0x00 
read to 0x36 ack data: 0xFF 0xFF 0xFF 0xFF 0xFF 0xFF 0xFF 0xFF 0xFF 0xFF 0xFF 0xFF 0xFF 0xFF 0xFF 0xFF 0xFF 0xFF 0xFF 0xFF 0xFF 0xFF 0xFF 0xFF 0xFF 0xFF 0xFF 0xFF 0xFF 0xFF 0xFF 0xFF 0xFF 0xFF 0xFF 0xFF 0xFF 0xFF 0xFF 0xFF 0xFF 0xFF 0xFF 0xFF 0xFF 0xFF 0xFF 0xFF 0xFF 0xFF 0xFF 0xFF 0xFF 0xFF 0xFF 0xFF 0xFF 0xFF 0xFF 0xFF 0xFF 0xFF 0xFF 0xFF 0xF1 0x54
write to 0x36 ack data: 0x1D 0x40 
read to 0x36 ack data: 0xFF 0xFF 0xFF 0xFF 0xFF 0xFF 0xFF 0xFF 0xFF 0xFF 0xFF 0xFF 0xFF 0xFF 0xFF 0xFF 0xFF 0xFF 0xFF 0xFF 0xFF 0xFF 0xFF 0xFF 0xFF 0xFF 0xFF 0xFF 0xFF 0xFF 0xFF 0xFF 0xFF 0xFF 0xFF 0xFF 0xFF 0xFF 0xFF 0xFF 0xFF 0xFF 0xFF 0xFF 0xFF 0xFF 0xFF 0xFF 0xFF 0xFF 0xFF 0xFF 0xFF 0xFF 0xFF 0xFF 0xFF 0xFF 0xFF 0xFF 0xFF 0xFF 0xFF 0xFF 0xF1 0x54
write to 0x36 ack data: 0x1D 0x80 
read to 0x36 ack data: 0xFF 0xFF 0xFF 0xFF 0xFF 0xFF 0xFF 0xFF 0xFF 0xFF 0xFF 0xFF 0xFF 0xFF 0xFF 0xFF 0xFF 0xFF 0xFF 0xFF 0xFF 0xFF 0xFF 0xFF 0xFF 0xFF 0xFF 0xFF 0xFF 0xFF 0xFF 0xFF 0xFF 0xFF 0xFF 0xFF 0xFF 0xFF 0xFF 0xFF 0xFF 0xFF 0xFF 0xFF 0xFF 0xFF 0xFF 0xFF 0xFF 0xFF 0xFF 0xFF 0xFF 0xFF 0xFF 0xFF 0xFF 0xFF 0xFF 0xFF 0xFF 0xFF 0xFF 0xFF 0xF1 0x54
write to 0x36 ack data: 0x1D 0xC0 
read to 0x36 ack data: 0xFF 0xFF 0xFF 0xFF 0xFF 0xFF 0xFF 0xFF 0xFF 0xFF 0xFF 0xFF 0xFF 0xFF 0xFF 0xFF 0xFF 0xFF 0xFF 0xFF 0xFF 0xFF 0xFF 0xFF 0xFF 0xFF 0xFF 0xFF 0xFF 0xFF 0xFF 0xFF 0xFF 0xFF 0xFF 0xFF 0xFF 0xFF 0xFF 0xFF 0xFF 0xFF 0xFF 0xFF 0xFF 0xFF 0xFF 0xFF 0xFF 0xFF 0xFF 0xFF 0xFF 0xFF 0xFF 0xFF 0xFF 0xFF 0xFF 0xFF 0xFF 0xFF 0xFF 0xFF 0xF1 0x54
write to 0x36 ack data: 0x1E 0x00 
read to 0x36 ack data: 0xFF 0xFF 0xFF 0xFF 0xFF 0xFF 0xFF 0xFF 0xFF 0xFF 0xFF 0xFF 0xFF 0xFF 0xFF 0xFF 0xFF 0xFF 0xFF 0xFF 0xFF 0xFF 0xFF 0xFF 0xFF 0xFF 0xFF 0xFF 0xFF 0xFF 0xFF 0xFF 0xFF 0xFF 0xFF 0xFF 0xFF 0xFF 0xFF 0xFF 0xFF 0xFF 0xFF 0xFF 0xFF 0xFF 0xFF 0xFF 0xFF 0xFF 0xFF 0xFF 0xFF 0xFF 0xFF 0xFF 0xFF 0xFF 0xFF 0xFF 0xFF 0xFF 0xFF 0xFF 0xF1 0x54
write to 0x36 ack data: 0x1E 0x40 
read to 0x36 ack data: 0xFF 0xFF 0xFF 0xFF 0xFF 0xFF 0xFF 0xFF 0xFF 0xFF 0xFF 0xFF 0xFF 0xFF 0xFF 0xFF 0xFF 0xFF 0xFF 0xFF 0xFF 0xFF 0xFF 0xFF 0xFF 0xFF 0xFF 0xFF 0xFF 0xFF 0xFF 0xFF 0xFF 0xFF 0xFF 0xFF 0xFF 0xFF 0xFF 0xFF 0xFF 0xFF 0xFF 0xFF 0xFF 0xFF 0xFF 0xFF 0xFF 0xFF 0xFF 0xFF 0xFF 0xFF 0xFF 0xFF 0xFF 0xFF 0xFF 0xFF 0xFF 0xFF 0xFF 0xFF 0xF1 0x54
write to 0x36 ack data: 0x1E 0x80 
read to 0x36 ack data: 0xFF 0xFF 0xFF 0xFF 0xFF 0xFF 0xFF 0xFF 0xFF 0xFF 0xFF 0xFF 0xFF 0xFF 0xFF 0xFF 0xFF 0xFF 0xFF 0xFF 0xFF 0xFF 0xFF 0xFF 0xFF 0xFF 0xFF 0xFF 0xFF 0xFF 0xFF 0xFF 0xFF 0xFF 0xFF 0xFF 0xFF 0xFF 0xFF 0xFF 0xFF 0xFF 0xFF 0xFF 0xFF 0xFF 0xFF 0xFF 0xFF 0xFF 0xFF 0xFF 0xFF 0xFF 0xFF 0xFF 0xFF 0xFF 0xFF 0xFF 0xFF 0xFF 0xFF 0xFF 0xF1 0x54
write to 0x36 ack data: 0x1E 0xC0 
read to 0x36 ack data: 0xFF 0xFF 0xFF 0xFF 0xFF 0xFF 0xFF 0xFF 0xFF 0xFF 0xFF 0xFF 0xFF 0xFF 0xFF 0xFF 0xFF 0xFF 0xFF 0xFF 0xFF 0xFF 0xFF 0xFF 0xFF 0xFF 0xFF 0xFF 0xFF 0xFF 0xFF 0xFF 0xFF 0xFF 0xFF 0xFF 0xFF 0xFF 0xFF 0xFF 0xFF 0xFF 0xFF 0xFF 0xFF 0xFF 0xFF 0xFF 0xFF 0xFF 0xFF 0xFF 0xFF 0xFF 0xFF 0xFF 0xFF 0xFF 0xFF 0xFF 0xFF 0xFF 0xFF 0xFF 0xF1 0x54
write to 0x36 ack data: 0x1F 0x00 
read to 0x36 ack data: 0xFF 0xFF 0xFF 0xFF 0xFF 0xFF 0xFF 0xFF 0xFF 0xFF 0xFF 0xFF 0xFF 0xFF 0xFF 0xFF 0xFF 0xFF 0xFF 0xFF 0xFF 0xFF 0xFF 0xFF 0xFF 0xFF 0xFF 0xFF 0xFF 0xFF 0xFF 0xFF 0xFF 0xFF 0xFF 0xFF 0xFF 0xFF 0xFF 0xFF 0xFF 0xFF 0xFF 0xFF 0xFF 0xFF 0xFF 0xFF 0xFF 0xFF 0xFF 0xFF 0xFF 0xFF 0xFF 0xFF 0xFF 0xFF 0xFF 0xFF 0xFF 0xFF 0xFF 0xFF 0xF1 0x54
write to 0x36 ack data: 0x1F 0x40 
read to 0x36 ack data: 0xFF 0xFF 0xFF 0xFF 0xFF 0xFF 0xFF 0xFF 0xFF 0xFF 0xFF 0xFF 0xFF 0xFF 0xFF 0xFF 0xFF 0xFF 0xFF 0xFF 0xFF 0xFF 0xFF 0xFF 0xFF 0xFF 0xFF 0xFF 0xFF 0xFF 0xFF 0xFF 0xFF 0xFF 0xFF 0xFF 0xFF 0xFF 0xFF 0xFF 0xFF 0xFF 0xFF 0xFF 0xFF 0xFF 0xFF 0xFF 0xFF 0xFF 0xFF 0xFF 0xFF 0xFF 0xFF 0xFF 0xFF 0xFF 0xFF 0xFF 0xFF 0xFF 0xFF 0xFF 0xF1 0x54
write to 0x36 ack data: 0x1F 0x80 
read to 0x36 ack data: 0xFF 0xFF 0xFF 0xFF 0xFF 0xFF 0xFF 0xFF 0xFF 0xFF 0xFF 0xFF 0xFF 0xFF 0xFF 0xFF 0xFF 0xFF 0xFF 0xFF 0xFF 0xFF 0xFF 0xFF 0xFF 0xFF 0xFF 0xFF 0xFF 0xFF 0xFF 0xFF 0xFF 0xFF 0xFF 0xFF 0xFF 0xFF 0xFF 0xFF 0xFF 0xFF 0xFF 0xFF 0xFF 0xFF 0xFF 0xFF 0xFF 0xFF 0xFF 0xFF 0xFF 0xFF 0xFF 0xFF 0xFF 0xFF 0xFF 0xFF 0xFF 0xFF 0xFF 0xFF 0xF1 0x54
write to 0x36 ack data: 0x1F 0xC0 
read to 0x36 ack data: 0xFF 0xFF 0xFF 0xFF 0xFF 0xFF 0xFF 0xFF 0xFF 0xFF 0xFF 0xFF 0xFF 0xFF 0xFF 0xFF 0xFF 0xFF 0xFF 0xFF 0xFF 0xFF 0xFF 0xFF 0xFF 0xFF 0xFF 0xFF 0xFF 0xFF 0xFF 0xFF 0xFF 0xFF 0xFF 0xFF 0xFF 0xFF 0xFF 0xFF 0xFF 0xFF 0xFF 0xFF 0xFF 0xFF 0xFF 0xFF 0xFF 0xFF 0xFF 0xFF 0xFF 0xFF 0xFF 0xFF 0xFF 0xFF 0xFF 0xFF 0xFF 0xAB 0xCD 0xEF 0x02 0x9C
write to 0x36 ack data: 0x20 0x00 
read to 0x36 ack data: 0x80 0x05 0x56 0x33 0x2E 0x31 0x20 0x74 0x03 0xA4 0x04 0x90 0x20 0x0B 0x73 0x02 0x3D 0xCC 0x02 0x3E 0x0A 0x02 0x2E 0x68 0x02 0x30 0x0E 0x02 0x3D 0x92 0x02 0x3E 0x47 0x02 0x3E 0x52 0x02 0x3E 0x5B 0x02 0x3E 0x6C 0x02 0x3B 0x2A 0x02 0x3A 0x01 0x02 0x3E 0xD7 0x02 0x3E 0xEC 0x02 0x3D 0x45 0x02 0x3F 0x73 0x02 0x3F 0x2B 0x02 0x0D 0xE3
write to 0x36 ack data: 0x20 0x40 
read to 0x36 ack data: 0x3F 0x35 0x02 0x27 0xB8 0x02 0x34 0x90 0x02 0x20 0xD8 0x02 0x37 0xAB 0x02 0x24 0x03 0x02 0x20 0xD9 0x02 0x21 0xB6 0x02 0x22 0xEA 0x02 0x20 0xD8 0x02 0x32 0x7A 0x02 0x24 0x8B 0x02 0x20 0xD8 0x02 0x20 0xD8 0x02 0x20 0xD8 0x02 0x20 0xD8 0x02 0x20 0xD8 0x02 0x20 0xD8 0x02 0x3E 0x7B 0x02 0x20 0xD8 0x02 0x20 0xD8 0x02 0x20 0x6F 0x05
write to 0x36 ack data: 0x20 0x80 
read to 0x36 ack data: 0xD8 0x02 0x20 0xD8 0x02 0x3E 0x80 0x02 0x2E 0x67 0x02 0x2E 0xB6 0x02 0x2E 0xB7 0x02 0x38 0x82 0x02 0x2E 0x8F 0x02 0x2E 0xB8 0x02 0x2E 0xB9 0x02 0x34 0x69 0x02 0x20 0xD8 0x02 0x24 0x8B 0x02 0x33 0x5D 0x02 0x3D 0x89 0x02 0x32 0x36 0x02 0x3E 0x8F 0x02 0x3F 0x7A 0x02 0x3F 0x7B 0x02 0x27 0x44 0x02 0x33 0xD5 0x02 0x35 0xB2 0x16 0x72
write to 0x36 ack data: 0x20 0xC0 
read to 0x36 ack data: 0x02 0x3C 0xA3 0x02 0x3C 0x88 0x02 0x3C 0x6D 0x02 0x34 0x22 0x02 0x36 0xD0 0x02 0x3F 0x3F 0x02 0x3B 0xA4 0x02 0x32 0x2B 0x22 0xC0 0x02 0xC0 0x03 0xC0 0x01 0x75 0x16 0x07 0x75 0x17 0xFF 0x90 0x42 0xDC 0xA3 0xE0 0xC4 0x03 0x54 0x07 0xF5 0x01 0x75 0xE1 0x00 0x75 0xE2 0x02 0x85 0x01 0x09 0x75 0x0B 0x10 0x43 0x0B 0x08 0x12 0xAC 0x94
write to 0x36 ack data: 0x21 0x00 
read to 0x36 ack data: 0x24 0x03 0x85 0x0D 0x02 0x85 0x0C 0x03 0xE5 0xE2 0x64 0x02 0x70 0x2C 0xE5 0x0C 0x54 0x80 0x70 0x13 0xC3 0xE5 0x0D 0x94 0x2C 0xE5 0x0C 0x94 0x01 0x40 0x1B 0x75 0xE1 0x00 0x75 0xE2 0x03 0x80 0xCF 0xC3 0xE5 0x0D 0x94 0xD4 0xE5 0x0C 0x94 0xFE 0x50 0x08 0x75 0xE1 0xC0 0x75 0xE2 0x00 0x80 0xBC 0x85 0x01 0x09 0x75 0x0B 0x10 0xFA 0x97
write to 0x36 ack data: 0x21 0x40 
read to 0x36 ack data: 0x12 0x24 0x03 0xC3 0xE5 0x0D 0x95 0x02 0xF5 0x13 0xE5 0x0C 0x95 0x03 0xF5 0x12 0xC3 0x90 0x60 0x77 0xE0 0x95 0x13 0xF5 0x02 0x90 0x60 0x76 0xE0 0x95 0x12 0xF5 0x03 0x50 0x0D 0xC3 0xE5 0x02 0x34 0x02 0xE5 0x03 0x34 0x00 0x50 0x0F 0x80 0x3F 0xC3 0x74 0x02 0x95 0x02 0x74 0x00 0x95 0x03 0x40 0x02 0x80 0x32 0x90 0x60 0x77 0x7A 0xFE
write to 0x36 ack data: 0x21 0x80 
read to 0x36 ack data: 0xE5 0x13 0xF0 0x90 0x60 0x76 0xE5 0x12 0xF0 0x12 0x2C 0x6B 0xE5 0x0A 0x54 0x80 0x60 0x06 0x75 0x0B 0x00 0x75 0x0A 0x00 0xE5 0x0A 0x54 0x78 0x60 0x06 0x75 0x0A 0x07 0x75 0x0B 0xFF 0x8E 0x83 0x8F 0x82 0xE5 0x0A 0xF0 0xA3 0xE5 0x0B 0xF0 0xD0 0x01 0xD0 0x03 0xD0 0x02 0x22 0xC0 0x01 0x75 0x0B 0x00 0x90 0x60 0x6C 0xE0 0x60 0xAE 0x70
write to 0x36 ack data: 0x21 0xC0 
read to 0x36 ack data: 0x13 0x14 0x70 0x10 0x75 0x0B 0x01 0x90 0x42 0x1C 0xE0 0xF5 0x09 0xA3 0xE0 0xF5 0x08 0x02 0x21 0xE1 0x75 0x0B 0x00 0x90 0x42 0x1E 0xE0 0xF5 0x09 0xA3 0xE0 0xF5 0x08 0x85 0x0B 0x01 0x85 0x09 0x17 0x85 0x08 0x16 0x75 0xE1 0x00 0x75 0xE2 0x02 0x85 0x01 0x09 0x75 0x0B 0x20 0x43 0x0B 0x08 0x12 0x24 0x03 0xE5 0xE2 0x64 0x02 0x29 0x27
write to 0x36 ack data: 0x22 0x00 
read to 0x36 ack data: 0x70 0x2C 0xE5 0x0C 0x54 0x80 0x70 0x13 0xC3 0xE5 0x0D 0x94 0x2C 0xE5 0x0C 0x94 0x01 0x40 0x1B 0x75 0xE1 0x00 0x75 0xE2 0x03 0x80 0xD5 0xC3 0xE5 0x0D 0x94 0xD4 0xE5 0x0C 0x94 0xFE 0x50 0x08 0x75 0xE1 0xC0 0x75 0xE2 0x00 0x80 0xC2 0xC0 0x0C 0xC0 0x0D 0x85 0x01 0x09 0x75 0x0B 0x20 0x12 0x24 0x03 0xC3 0xD0 0xE0 0x95 0x0D 0xF0 0x54
write to 0x36 ack data: 0x22 0x40 
read to 0x36 ack data: 0xF5 0x0B 0xF5 0x0F 0xD0 0xE0 0x95 0x0C 0xF5 0x0A 0xF5 0x0E 0xC3 0xE5 0x0E 0x33 0x40 0x0D 0xC3 0xE5 0x0F 0x94 0x8A 0xE5 0x0E 0x94 0x01 0x40 0x29 0x80 0x22 0xE5 0x0F 0xF4 0xF5 0x0F 0xE5 0x0E 0xF4 0xF5 0x0E 0xC3 0xE5 0x0F 0x34 0x01 0xF5 0x0F 0xE5 0x0E 0x34 0x00 0xF5 0x0E 0xC3 0x74 0x3B 0x95 0x0F 0x74 0x01 0x95 0x0E 0x50 0xFD 0xD3
write to 0x36 ack data: 0x22 0x80 
read to 0x36 ack data: 0x05 0x75 0x09 0x02 0x80 0x03 0x75 0x09 0x01 0x90 0x60 0x6C 0xE5 0x09 0xF0 0xC3 0xE5 0x0A 0x13 0xF5 0x0A 0xE5 0x0B 0x13 0xF5 0x0B 0xE5 0x0B 0x54 0x02 0xF5 0x0D 0xC3 0xE5 0x0A 0x13 0xF5 0x0A 0xE5 0x0B 0x13 0xF5 0x0B 0xC3 0xE5 0x0A 0x13 0xF5 0x0A 0xE5 0x0B 0x13 0xF5 0x0B 0xE5 0x0D 0x60 0x0D 0xC3 0xE5 0x0B 0x34 0x01 0xF5 0x9C 0x2E
write to 0x36 ack data: 0x22 0xC0 
read to 0x36 ack data: 0x0B 0xE5 0x0A 0x34 0x00 0xF5 0x0A 0xE5 0x0B 0x54 0x80 0x70 0x0C 0xC3 0xE5 0x0B 0x94 0x69 0x40 0x11 0x75 0x0B 0x69 0x80 0x0C 0xE5 0x0B 0xC3 0xE5 0x0B 0x94 0xC4 0x50 0x03 0x75 0x0B 0xC4 0xAF 0x0B 0xD0 0x01 0x22 0xC0 0x00 0xC0 0x01 0xC0 0x02 0xC0 0x03 0x75 0xE1 0x00 0x75 0xE2 0x02 0x75 0x0B 0x40 0x43 0x0B 0x08 0x75 0x09 0x26 0xCA
write to 0x36 ack data: 0x23 0x00 
read to 0x36 ack data: 0x00 0x75 0x17 0xFF 0x75 0x16 0x07 0x12 0x24 0x03 0xE5 0xE2 0x64 0x02 0x70 0x2C 0xE5 0x0C 0x54 0x80 0x70 0x13 0xC3 0xE5 0x0D 0x94 0x2C 0xE5 0x0C 0x94 0x01 0x40 0x1B 0x75 0xE1 0x00 0x75 0xE2 0x03 0x80 0xCF 0xC3 0xE5 0x0D 0x94 0xD4 0xE5 0x0C 0x94 0xFE 0x50 0x08 0x75 0xE1 0xC0 0x75 0xE2 0x00 0x80 0xBC 0xC0 0x0C 0xC0 0x0D 0x8C 0x78
write to 0x36 ack data: 0x23 0x40 
read to 0x36 ack data: 0x75 0x0B 0x40 0x75 0x09 0x00 0x75 0x17 0xFF 0x75 0x16 0x07 0x12 0x24 0x03 0xC3 0xE5 0x0D 0xD0 0x0D 0x95 0x0D 0xF5 0x0D 0xE5 0x0C 0xD0 0x0C 0x95 0x0C 0xF5 0x0C 0x90 0x42 0xDE 0xE0 0xF5 0x00 0xA3 0xE0 0xF5 0x01 0xC3 0x74 0x4C 0x95 0x00 0x74 0x04 0x95 0x01 0x40 0x0A 0xE5 0x00 0x94 0x84 0xE5 0x01 0x94 0x03 0x50 0x06 0x75 0xD8 0xC1
write to 0x36 ack data: 0x23 0x80 
read to 0x36 ack data: 0x00 0x01 0x75 0x01 0x04 0xC3 0xE5 0x00 0x33 0xF5 0x02 0xE5 0x01 0x33 0xF5 0x03 0xC3 0xE5 0x00 0x35 0x02 0xF5 0x00 0xE5 0x01 0x35 0x03 0xF5 0x01 0x85 0x0D 0x0B 0x85 0x0C 0x0A 0x12 0x3B 0x2A 0x75 0x0C 0x00 0x75 0x0D 0x74 0x75 0x0E 0x00 0x75 0x0F 0x20 0x12 0x34 0x90 0xC0 0x0D 0xC0 0x0C 0xC0 0x0B 0xC0 0x0A 0xC3 0xE5 0x02 0x9F 0x92
write to 0x36 ack data: 0x23 0xC0 
read to 0x36 ack data: 0xF4 0x34 0x01 0xF5 0x0B 0xE5 0x03 0xF4 0x34 0x01 0xF5 0x0A 0x12 0x3B 0x2A 0xD0 0x0E 0xD0 0x0F 0xD0 0x0C 0xD0 0x0D 0x12 0x34 0x90 0x85 0x0B 0x09 0x85 0x0A 0x08 0x85 0x0D 0x0B 0x85 0x0C 0x0A 0x12 0x3A 0x01 0xC3 0xE5 0x00 0x35 0x0B 0xF5 0x0B 0xE5 0x01 0x35 0x0A 0xF5 0x0A 0xD0 0x03 0xD0 0x02 0xD0 0x01 0xD0 0x00 0xAF 0x0B 0x89 0x0E
write to 0x36 ack data: 0x24 0x00 
read to 0x36 ack data: 0xAE 0x0A 0x22 0xE5 0x09 0x25 0x0B 0xF5 0xD9 0x43 0x8D 0x01 0x75 0x98 0x00 0x75 0xA0 0x00 0x75 0xA6 0x00 0x75 0xA7 0x00 0x85 0x17 0xA4 0x85 0x16 0xA5 0x75 0x98 0x00 0x75 0xA0 0x00 0xE5 0x89 0x54 0x03 0xB4 0x02 0x1D 0xD2 0xC7 0x74 0x50 0xD5 0xE0 0xFD 0x43 0xE8 0x03 0x75 0x98 0x00 0x75 0xA0 0x00 0x43 0x87 0x01 0x00 0x00 0x3F 0x22
write to 0x36 ack data: 0x24 0x40 
read to 0x36 ack data: 0x00 0x30 0x99 0xFD 0xC2 0xC7 0x80 0x26 0xD2 0xC5 0x00 0x00 0x00 0x00 0x00 0xD2 0xC6 0x00 0xD2 0xC7 0x00 0x43 0xE8 0x03 0x75 0x98 0x00 0x75 0xA0 0x00 0x43 0x87 0x01 0x00 0x00 0x00 0x30 0x99 0xFD 0xC2 0xC7 0x00 0xC2 0xC6 0xC2 0xC5 0xC2 0xE8 0xC2 0xE9 0x85 0xA6 0x0D 0x85 0xA7 0x0C 0x75 0x98 0x00 0x75 0xA0 0x00 0x75 0xD9 0xC8 0xE4
write to 0x36 ack data: 0x24 0x80 
read to 0x36 ack data: 0x00 0x75 0xDA 0x00 0x75 0xA6 0x00 0x75 0xA7 0x00 0x22 0xC0 0x00 0xC0 0x01 0xC0 0x02 0xC0 0x06 0xC0 0x03 0xC0 0x04 0xC0 0x05 0xC0 0x07 0xC0 0x8A 0xC0 0x89 0x85 0x0F 0x04 0x85 0x09 0x06 0x85 0x08 0x05 0x85 0x0D 0x03 0x85 0x0A 0x07 0x90 0x42 0x00 0xE0 0xF5 0xC8 0xA3 0xE0 0xF5 0xC9 0xA3 0xE0 0xF5 0xCA 0xA3 0xE0 0xF5 0xCB 0x4F 0x46
write to 0x36 ack data: 0x24 0xC0 
read to 0x36 ack data: 0xE5 0x0B 0x54 0xE0 0x64 0x00 0x60 0x5A 0xE5 0x0B 0x54 0xE0 0x64 0x20 0x60 0x22 0xE5 0x0B 0x54 0xE0 0x64 0x40 0x60 0x26 0xE5 0x0B 0x54 0xE0 0x64 0x60 0x60 0x2A 0xE5 0x0B 0x54 0xE0 0x64 0x80 0x60 0x2E 0xE5 0x0B 0x54 0xE0 0x64 0xA0 0x60 0x3E 0x80 0x30 0xD2 0xF8 0xD2 0xFC 0xC2 0xFD 0xC2 0xFE 0xD2 0xC4 0x80 0x3C 0xD2 0xF8 0x26 0x96
write to 0x36 ack data: 0x25 0x00 
read to 0x36 ack data: 0xD2 0xFC 0xD2 0xFD 0xC2 0xFE 0xD2 0xC4 0x80 0x30 0xC2 0xF8 0xD2 0xFC 0xC2 0xFD 0xC2 0xFE 0xD2 0xC4 0x80 0x24 0xC2 0xF8 0xD2 0xFC 0xD2 0xFD 0xC2 0xFE 0xD2 0xC4 0x80 0x18 0xC2 0xF8 0xC2 0xFC 0xC2 0xFD 0xC2 0xFE 0xD2 0xC4 0x80 0x0C 0xC2 0xF8 0xC2 0xFC 0xD2 0xFD 0xC2 0xFE 0xC2 0xC4 0x80 0x00 0x53 0xC8 0xF3 0xE5 0x03 0x54 0xE3 0xD8
write to 0x36 ack data: 0x25 0x40 
read to 0x36 ack data: 0xC0 0x24 0x80 0xC4 0x42 0xC8 0x74 0x03 0xC0 0xE0 0x80 0x00 0x12 0x26 0x06 0xD0 0xE0 0x85 0x07 0x8A 0xF5 0x89 0x53 0x03 0x3F 0xE5 0x04 0x64 0x40 0x70 0x14 0x43 0x87 0x04 0x43 0xD8 0x80 0x53 0xC8 0x8F 0x75 0xBF 0x20 0x75 0xBF 0x60 0x75 0x04 0x80 0x80 0x1B 0xE5 0x04 0x64 0x20 0x70 0x15 0x43 0x87 0x04 0x43 0xD8 0x80 0x53 0x30 0x66
write to 0x36 ack data: 0x25 0x80 
read to 0x36 ack data: 0xC8 0x8F 0x43 0xC8 0x10 0x75 0xBF 0x20 0x75 0xBF 0x60 0x75 0x04 0x80 0xE5 0x06 0x60 0x27 0xA8 0x04 0x75 0x98 0x00 0x75 0xA0 0x00 0x43 0xF8 0x04 0x43 0xE9 0x01 0x88 0xBA 0x14 0xF5 0xB9 0x43 0xE9 0x02 0x43 0x87 0x01 0x00 0x00 0x00 0xE5 0xE9 0x30 0xE2 0xFB 0x75 0xE9 0x00 0x53 0xF8 0xFB 0x15 0x03 0x53 0x03 0x3F 0xE5 0x03 0x73 0x9C
write to 0x36 ack data: 0x25 0xC0 
read to 0x36 ack data: 0x60 0x09 0xE5 0x05 0x00 0x00 0x14 0x70 0xFB 0x80 0xC3 0x53 0x87 0xFB 0x75 0x8A 0x02 0x53 0x89 0xFC 0x75 0x98 0x00 0x75 0xA0 0x00 0xD0 0xE0 0xC2 0xEC 0xC2 0xEB 0xC2 0xED 0x64 0x02 0x70 0x0D 0xD2 0xC5 0x00 0x00 0x00 0x00 0x00 0xD2 0xC6 0x00 0x75 0x89 0x02 0xD0 0x8A 0xD0 0x07 0xD0 0x05 0xD0 0x04 0xD0 0x03 0xD0 0x06 0xD0 0x5A 0x89
write to 0x36 ack data: 0x26 0x00 
read to 0x36 ack data: 0x02 0xD0 0x01 0xD0 0x00 0x22 0xC0 0x07 0x12 0x3D 0x89 0xE5 0x07 0xD0 0x07 0x43 0x8D 0x80 0xB4 0x01 0x64 0x53 0xF2 0x7F 0x43 0xF6 0x02 0xD2 0xDE 0xE5 0x0B 0x54 0x08 0x60 0x2B 0x43 0xC9 0x10 0xE5 0x0B 0x54 0x04 0x60 0x11 0xD2 0xEE 0x53 0xC9 0x9F 0x43 0xC9 0x60 0x53 0xCB 0x41 0x43 0xCB 0x08 0x02 0x27 0x14 0xC2 0xEE 0x53 0x07 0xE9
write to 0x36 ack data: 0x26 0x40 
read to 0x36 ack data: 0xC9 0x9F 0x43 0xC9 0x40 0x53 0xCB 0x41 0x43 0xCB 0x10 0x02 0x27 0x14 0x53 0xC9 0xEF 0xE5 0x0B 0x54 0x04 0x60 0x11 0xD2 0xEE 0x53 0xC9 0x9F 0x43 0xC9 0x40 0x53 0xCB 0x41 0x43 0xCB 0x08 0x02 0x27 0x14 0xC2 0xEE 0x53 0xC9 0x9F 0x43 0xC9 0x20 0x53 0xCB 0x41 0x43 0xCB 0x10 0x02 0x27 0x14 0xB4 0x02 0x5C 0x43 0xF2 0x80 0xE5 0x4C 0x94
write to 0x36 ack data: 0x26 0x80 
read to 0x36 ack data: 0x0B 0x54 0x08 0x60 0x28 0xC2 0xDE 0x43 0xC9 0x10 0xE5 0x0B 0x54 0x04 0x60 0x10 0xD2 0xEE 0x53 0xC9 0x9F 0x43 0xC9 0x20 0x53 0xCB 0x41 0x43 0xCB 0x10 0x80 0x74 0xC2 0xEE 0x53 0xC9 0x9F 0x53 0xCB 0x41 0x43 0xCB 0x20 0x80 0x67 0xD2 0xDE 0x53 0xC9 0xEF 0xE5 0x0B 0x54 0x04 0x60 0x10 0xD2 0xEE 0x53 0xC9 0x9F 0x43 0xC9 0x60 0x04 0x89
write to 0x36 ack data: 0x26 0xC0 
read to 0x36 ack data: 0x53 0xCB 0x41 0x43 0xCB 0x08 0x80 0x4C 0xC2 0xEE 0x53 0xC9 0x9F 0x43 0xC9 0x40 0x53 0xCB 0x41 0x43 0xCB 0x10 0x80 0x3C 0x53 0xF2 0x7F 0x53 0xF6 0xFD 0xD2 0xDE 0xE5 0x0B 0x54 0x08 0x60 0x05 0x43 0xC9 0x10 0x80 0x03 0x53 0xC9 0xEF 0xE5 0x0B 0x54 0x04 0x60 0x10 0xD2 0xEE 0x53 0xC9 0x9F 0x43 0xC9 0x40 0x53 0xCB 0x41 0x43 0xE7 0x47
write to 0x36 ack data: 0x27 0x00 
read to 0x36 ack data: 0xCB 0x08 0x80 0x10 0xC2 0xEE 0x53 0xC9 0x9F 0x43 0xC9 0x20 0x53 0xCB 0x41 0x43 0xCB 0x10 0x80 0x00 0x53 0x8D 0x7F 0x53 0xC8 0x8C 0x43 0xC8 0x02 0x75 0x89 0x00 0x00 0xC2 0xC6 0xC2 0xC5 0xD2 0xED 0x12 0x3D 0x8C 0xD2 0xEB 0x43 0xCA 0x01 0xD2 0xEC 0xE5 0xCB 0x54 0x3E 0x03 0x00 0x00 0x00 0x00 0x00 0x00 0x00 0x14 0x70 0xF6 0xC4 0x01
write to 0x36 ack data: 0x27 0x40 
read to 0x36 ack data: 0x53 0xCA 0xFE 0x22 0xC0 0x8A 0xC0 0x89 0x90 0x42 0x00 0xE0 0xF5 0xC8 0xA3 0xE0 0xF5 0xC9 0xA3 0xE0 0xF5 0xCA 0xA3 0xE0 0xF5 0xCB 0xC2 0xF8 0xC2 0xFC 0xC2 0xFD 0xC2 0xFE 0xD2 0xC4 0x8F 0x0B 0x12 0x26 0x06 0x53 0xC8 0xF3 0xEA 0x54 0xC0 0x24 0x80 0xC4 0x42 0xC8 0x8B 0x8A 0x75 0x89 0x03 0x75 0xB9 0xAA 0x75 0xBA 0xAA 0x75 0xFA 0xC6
write to 0x36 ack data: 0x27 0x80 
read to 0x36 ack data: 0xBB 0xFF 0x75 0xBC 0xBF 0xC3 0xED 0x94 0x01 0xFD 0xEC 0x94 0x00 0xFC 0x50 0xE9 0x53 0x87 0xFB 0xC2 0xEC 0x53 0x89 0xFC 0xC2 0xEB 0xC2 0xED 0xD0 0xE0 0x64 0x02 0x70 0x0D 0xD2 0xC5 0x00 0x00 0x00 0x00 0x00 0xD2 0xC6 0x00 0x75 0x89 0x02 0xD0 0x8A 0x75 0x98 0x00 0x75 0xA0 0x00 0x22 0xC0 0x00 0xC0 0x01 0xC0 0x02 0xC0 0x03 0xB3 0x71
write to 0x36 ack data: 0x27 0xC0 
read to 0x36 ack data: 0xC0 0x04 0xC0 0x05 0xC0 0x06 0xC0 0x07 0xC0 0x16 0xC0 0x17 0xE5 0x09 0xF5 0x00 0xE5 0x08 0xF5 0x01 0xE5 0x0B 0xF5 0x02 0xE5 0x0A 0xF5 0x03 0xE5 0x0D 0xF5 0x04 0xE5 0x0C 0xF5 0x05 0xE5 0x0F 0xF5 0x06 0xE5 0x0E 0xF5 0x07 0xE5 0x00 0xF5 0x0B 0x75 0x0A 0x00 0xE5 0x04 0xF5 0x0D 0x75 0x0C 0x00 0xE5 0x0D 0xF5 0x0F 0xE5 0x0C 0x1F 0xC6
write to 0x36 ack data: 0x28 0x00 
read to 0x36 ack data: 0xF5 0x0E 0xC3 0xE5 0x0B 0x95 0x0D 0xF5 0x0D 0x50 0x6A 0xE5 0x0F 0xF5 0x0B 0xE5 0x0E 0xF5 0x0A 0xC3 0xE5 0x0D 0xF4 0x34 0x01 0xF5 0x0D 0xE5 0x0C 0xF4 0x34 0x00 0xF5 0x0C 0xE5 0x0F 0xF5 0x0B 0xE5 0x0E 0xF5 0x0A 0xE5 0x06 0xF5 0x09 0xE5 0x07 0xF5 0x08 0xE5 0x0D 0x94 0x0F 0x40 0x03 0x02 0x2A 0x1C 0xE5 0x02 0xF5 0x09 0xE5 0x45 0x62
write to 0x36 ack data: 0x28 0x40 
read to 0x36 ack data: 0x03 0xF5 0x08 0xD3 0xE5 0x08 0x13 0xF5 0x08 0xE5 0x09 0x13 0xF5 0x09 0xE5 0x06 0xF5 0x0F 0xE5 0x07 0xF5 0x0E 0xD3 0xE5 0x0E 0x13 0xF5 0x0E 0xE5 0x0F 0x13 0xF5 0x0F 0xC3 0xE5 0x08 0x13 0xF5 0x08 0xE5 0x09 0x13 0xF5 0x09 0x15 0x0D 0xE5 0x0D 0x70 0xEF 0x02 0x28 0xF9 0xE5 0x0D 0x70 0x03 0x02 0x28 0xC8 0xE5 0x02 0xF5 0x09 0xC1 0x28
write to 0x36 ack data: 0x28 0x80 
read to 0x36 ack data: 0xE5 0x03 0xF5 0x08 0xC3 0xE5 0x0D 0x94 0x0F 0x40 0x03 0x02 0x2A 0x27 0xE5 0x02 0xF5 0x09 0xE5 0x03 0xF5 0x08 0xD3 0xE5 0x08 0x13 0xF5 0x08 0xE5 0x09 0x13 0xF5 0x09 0xE5 0x06 0xF5 0x0F 0xE5 0x07 0xF5 0x0E 0xD3 0xE5 0x0E 0x13 0xF5 0x0E 0xE5 0x0F 0x13 0xF5 0x0F 0xC3 0xE5 0x0E 0x13 0xF5 0x0E 0xE5 0x0F 0x13 0xF5 0x0F 0x15 0x67 0x7B
write to 0x36 ack data: 0x28 0xC0 
read to 0x36 ack data: 0x0D 0xE5 0x0D 0x70 0xEF 0x02 0x28 0xF9 0xE5 0x0B 0x70 0x07 0xE5 0x0B 0xF5 0x09 0x02 0x2A 0x2F 0xE5 0x02 0xF5 0x09 0xE5 0x03 0xF5 0x08 0xE5 0x06 0xF5 0x0F 0xE5 0x07 0xF5 0x0E 0xD3 0xE5 0x0E 0x13 0xF5 0x0E 0xE5 0x0F 0x13 0xF5 0x0F 0xD3 0xE5 0x08 0x13 0xF5 0x08 0xE5 0x09 0x13 0xF5 0x09 0xC3 0x05 0x0B 0xE5 0x0B 0xF5 0x16 0x27 0xA4
write to 0x36 ack data: 0x29 0x00 
read to 0x36 ack data: 0xE5 0x0A 0xF5 0x17 0x75 0x0B 0x00 0xE5 0x00 0xF5 0x0D 0xE5 0x01 0xF5 0x0C 0xC3 0xE5 0x0D 0x33 0xF5 0x0D 0xE5 0x0C 0x33 0xF5 0x0C 0x50 0x02 0x05 0x0B 0xE5 0x04 0xF5 0x0D 0xE5 0x05 0xF5 0x0C 0xC3 0xE5 0x0D 0x33 0xF5 0x0D 0xE5 0x0C 0x33 0xF5 0x0C 0x50 0x02 0x05 0x0B 0x15 0x0B 0xE5 0x0B 0x70 0x6D 0xE5 0x00 0xF5 0x0D 0xE5 0xD4 0xA0
write to 0x36 ack data: 0x29 0x40 
read to 0x36 ack data: 0x01 0xF5 0x0C 0xC3 0xE5 0x0C 0x33 0x50 0x0F 0xC3 0xE5 0x09 0xF4 0x34 0x01 0xF5 0x09 0xE5 0x08 0xF4 0x34 0x00 0xF5 0x08 0xE5 0x04 0xF5 0x0D 0xE5 0x05 0xF5 0x0C 0xC3 0x33 0x50 0x0F 0xC3 0xE5 0x0F 0xF4 0x34 0x01 0xF5 0x0F 0xE5 0x0E 0xF4 0x34 0x00 0xF5 0x0E 0x75 0x0D 0x00 0x75 0x0C 0x00 0xE5 0x16 0xF5 0x0B 0xE5 0x17 0xF5 0xE6 0xE8
write to 0x36 ack data: 0x29 0x80 
read to 0x36 ack data: 0x0A 0xC3 0xE5 0x0F 0x35 0x09 0xF5 0x09 0xE5 0x0E 0x35 0x08 0xF5 0x08 0x40 0x61 0x75 0x0D 0x00 0x75 0x0C 0x80 0xC3 0xE5 0x09 0xF4 0x34 0x01 0xF5 0x09 0xE5 0x08 0xF4 0x34 0x00 0xF5 0x08 0x02 0x29 0xF1 0x75 0x0D 0x00 0x75 0x0C 0x00 0xC3 0xE5 0x01 0x33 0x50 0x26 0x75 0x0D 0x00 0x75 0x0C 0x80 0xE5 0x16 0xF5 0x0B 0xE5 0x17 0xDE 0x6E
write to 0x36 ack data: 0x29 0xC0 
read to 0x36 ack data: 0xF5 0x0A 0xC3 0xE5 0x0F 0x35 0x09 0xF5 0x09 0xE5 0x0E 0x35 0x08 0xF5 0x08 0x50 0x20 0xE5 0x0A 0x45 0x0C 0xF5 0x0A 0x02 0x2A 0x2F 0xE5 0x16 0xF5 0x0B 0xE5 0x17 0xF5 0x0A 0xC3 0xE5 0x0F 0x35 0x09 0xF5 0x09 0xE5 0x0E 0x35 0x08 0xF5 0x08 0x40 0x3E 0xE5 0x09 0x70 0x0D 0xE5 0x08 0x70 0x09 0x75 0x0B 0x00 0x75 0x0A 0x00 0x02 0x80 0x9E
write to 0x36 ack data: 0x2A 0x00 
read to 0x36 ack data: 0x2A 0x2F 0x15 0x0B 0xC3 0xE5 0x09 0x33 0xF5 0x09 0xE5 0x08 0x33 0xF5 0x08 0x50 0xF1 0xE5 0x0D 0x42 0x0B 0xE5 0x0C 0x42 0x0A 0x02 0x2A 0x2F 0xE5 0x04 0xF5 0x0B 0xE5 0x05 0xF5 0x0A 0x02 0x2A 0x2F 0xE5 0x00 0xF5 0x0B 0xE5 0x01 0xF5 0x0A 0xD0 0x17 0xD0 0x16 0xD0 0x07 0xD0 0x06 0xD0 0x05 0xD0 0x04 0xD0 0x03 0xD0 0x02 0xD0 0x51 0x62
write to 0x36 ack data: 0x2A 0x40 
read to 0x36 ack data: 0x01 0xD0 0x00 0x22 0x78 0x0D 0xE4 0xF6 0x08 0xF6 0x08 0xF6 0x12 0x39 0x50 0x90 0x60 0x62 0xE0 0xFE 0xA3 0xE0 0xFF 0xC3 0x95 0x11 0xE5 0x10 0x64 0x80 0xF8 0xEE 0x64 0x80 0x98 0x50 0x17 0x90 0x60 0x61 0xE0 0x95 0x11 0xE5 0x10 0x64 0x80 0xF8 0x90 0x60 0x60 0xE0 0x64 0x80 0x98 0x40 0x03 0x02 0x2C 0x6A 0xD3 0xEF 0x95 0x11 0xDD 0x4F
write to 0x36 ack data: 0x2A 0x80 
read to 0x36 ack data: 0xE5 0x10 0x64 0x80 0xF8 0xEE 0x64 0x80 0x98 0x50 0x03 0x02 0x2B 0x7D 0x78 0x0D 0x76 0x08 0x12 0x39 0x46 0x78 0x0E 0xE6 0xFE 0x08 0xE6 0xFF 0xEE 0x54 0x01 0xFE 0xEF 0x54 0xF0 0xFF 0xBE 0x01 0x1B 0xBF 0xF0 0x18 0xD3 0x90 0x60 0x63 0xE0 0x95 0x11 0xE5 0x10 0x64 0x80 0xF8 0x90 0x60 0x62 0xE0 0x64 0x80 0x98 0x40 0x03 0x02 0x90 0x02
write to 0x36 ack data: 0x2A 0xC0 
read to 0x36 ack data: 0x2C 0x6A 0x90 0x60 0x60 0xE0 0xFE 0xA3 0xE0 0xFF 0xC3 0x95 0x11 0xE5 0x10 0x64 0x80 0xF8 0xEE 0x64 0x80 0x98 0x40 0x17 0x90 0x60 0x63 0xE0 0x95 0x11 0xE5 0x10 0x64 0x80 0xF8 0x90 0x60 0x62 0xE0 0x64 0x80 0x98 0x50 0x03 0x02 0x2C 0x6A 0xC3 0xEF 0x95 0x11 0xE5 0x10 0x64 0x80 0xF8 0xEE 0x64 0x80 0x98 0x50 0x64 0x78 0x0F 0x9A 0x84
write to 0x36 ack data: 0x2B 0x00 
read to 0x36 ack data: 0x06 0xE6 0x18 0x70 0x01 0x06 0x12 0x39 0x50 0x78 0x0E 0x08 0xE6 0x54 0x0F 0x64 0x0F 0x70 0x18 0xC3 0x90 0x60 0x61 0xE0 0x95 0x11 0xE5 0x10 0x64 0x80 0xF8 0x90 0x60 0x60 0xE0 0x64 0x80 0x98 0x50 0x03 0x02 0x2C 0x6A 0xC3 0x90 0x60 0x61 0xE0 0x95 0x11 0xE5 0x10 0x64 0x80 0xF8 0x90 0x60 0x60 0xE0 0x64 0x80 0x98 0x40 0x03 0x55 0xF9
write to 0x36 ack data: 0x2B 0x40 
read to 0x36 ack data: 0x02 0x2C 0x6A 0x78 0x0E 0x08 0xE6 0x54 0x0F 0x64 0x0F 0x70 0xB1 0x18 0xC0 0x00 0xE6 0xFE 0x08 0xE6 0xFF 0xEE 0x54 0x01 0xFE 0xEF 0x54 0xF0 0xD0 0x00 0xA6 0x06 0x08 0xF6 0x78 0x0E 0xE6 0xFE 0x08 0xE6 0xFF 0xEE 0x54 0x01 0xFE 0xEF 0x54 0xF0 0x64 0xF0 0x70 0x03 0xEE 0x64 0x01 0x60 0x03 0x02 0x2A 0x92 0x22 0x78 0x0D 0xE4 0xF9 0x34
write to 0x36 ack data: 0x2B 0x80 
read to 0x36 ack data: 0xF6 0x12 0x39 0x46 0x78 0x0E 0xE6 0xFE 0x08 0xE6 0xFF 0xEE 0x54 0x01 0xFE 0xEF 0x54 0xF0 0xFF 0xBE 0x01 0x1B 0xBF 0xF0 0x18 0xC3 0x90 0x60 0x61 0xE0 0x95 0x11 0xE5 0x10 0x64 0x80 0xF8 0x90 0x60 0x60 0xE0 0x64 0x80 0x98 0x50 0x03 0x02 0x2C 0x6A 0xC3 0x90 0x60 0x61 0xE0 0x95 0x11 0xE5 0x10 0x64 0x80 0xF8 0x90 0x60 0x60 0x2D 0x7A
write to 0x36 ack data: 0x2B 0xC0 
read to 0x36 ack data: 0xE0 0x64 0x80 0x98 0x40 0x17 0x90 0x60 0x63 0xE0 0x95 0x11 0xE5 0x10 0x64 0x80 0xF8 0x90 0x60 0x62 0xE0 0x64 0x80 0x98 0x50 0x03 0x02 0x2C 0x6A 0xD3 0x90 0x60 0x63 0xE0 0x95 0x11 0xE5 0x10 0x64 0x80 0xF8 0x90 0x60 0x62 0xE0 0x64 0x80 0x98 0x40 0x5E 0x78 0x0F 0x06 0xE6 0x18 0x70 0x01 0x06 0x12 0x39 0x50 0x78 0x0E 0x08 0x49 0xD2
write to 0x36 ack data: 0x2C 0x00 
read to 0x36 ack data: 0xE6 0x54 0x0F 0x64 0x0F 0x70 0x15 0xD3 0x90 0x60 0x63 0xE0 0x95 0x11 0xE5 0x10 0x64 0x80 0xF8 0x90 0x60 0x62 0xE0 0x64 0x80 0x98 0x50 0x4E 0xD3 0x90 0x60 0x63 0xE0 0x95 0x11 0xE5 0x10 0x64 0x80 0xF8 0x90 0x60 0x62 0xE0 0x64 0x80 0x98 0x40 0x39 0x78 0x0E 0x08 0xE6 0x54 0x0F 0x64 0x0F 0x70 0xB7 0x18 0xC0 0x00 0xE6 0xFE 0x8C 0x7A
write to 0x36 ack data: 0x2C 0x40 
read to 0x36 ack data: 0x08 0xE6 0xFF 0xEE 0x54 0x01 0xFE 0xEF 0x54 0xF0 0xD0 0x00 0xA6 0x06 0x08 0xF6 0x78 0x0E 0xE6 0xFE 0x08 0xE6 0xFF 0xEE 0x54 0x01 0xFE 0xEF 0x54 0xF0 0x64 0xF0 0x70 0x03 0xEE 0x64 0x01 0x60 0x03 0x02 0x2B 0x81 0x22 0xC0 0x00 0xC0 0x01 0xC0 0x02 0xC0 0x03 0xC0 0x04 0xC0 0x05 0xC0 0x06 0xC0 0x07 0xC0 0x10 0xC0 0x11 0xC0 0x4C 0xB2
write to 0x36 ack data: 0x2C 0x80 
read to 0x36 ack data: 0x16 0xC0 0x17 0x90 0x42 0xD8 0xE0 0xF5 0x0F 0x75 0x0E 0x00 0xC3 0x90 0x60 0x78 0xE0 0x95 0x0F 0xF5 0x0B 0x75 0x0A 0x00 0xE5 0x0B 0x54 0x80 0x60 0x03 0x75 0x0A 0xFF 0x12 0x3B 0x2A 0xE5 0x0B 0xF5 0x00 0xE5 0x0A 0xF5 0x01 0xE5 0x09 0xF5 0x02 0xE5 0x08 0xF5 0x03 0x90 0x42 0xC0 0xE0 0xF5 0x0D 0xA3 0xE0 0xF5 0x0C 0x90 0x42 0x67 0x88
write to 0x36 ack data: 0x2C 0xC0 
read to 0x36 ack data: 0xC2 0xE0 0xF5 0x0F 0xA3 0xE0 0xF5 0x0E 0x12 0x34 0x90 0xE5 0x0D 0xF5 0x09 0xE5 0x0C 0xF5 0x08 0x90 0x42 0xCC 0xE0 0xF5 0x0D 0xA3 0xE0 0xF5 0x0C 0x90 0x42 0xCE 0xE0 0xF5 0x0F 0xA3 0xE0 0xF5 0x0E 0x12 0x27 0xB8 0xE5 0x0B 0xF5 0x06 0xE5 0x0A 0xF5 0x07 0xE5 0x09 0xF5 0x04 0xE5 0x08 0xF5 0x05 0xE5 0x13 0xF5 0x0B 0xE5 0x12 0x5A 0xCC
write to 0x36 ack data: 0x2D 0x00 
read to 0x36 ack data: 0xF5 0x0A 0x12 0x3B 0x2A 0xE5 0x09 0xF5 0x0D 0xE5 0x08 0xF5 0x0C 0xE5 0x0B 0xF5 0x0F 0xE5 0x0A 0xF5 0x0E 0x12 0x34 0x90 0xE5 0x0D 0xF5 0x09 0xE5 0x0C 0xF5 0x08 0xE5 0x06 0xF5 0x0D 0xE5 0x07 0xF5 0x0C 0xE5 0x04 0xF5 0x0F 0xE5 0x05 0xF5 0x0E 0x12 0x34 0x90 0xE5 0x0D 0xF5 0x16 0xE5 0x0C 0xF5 0x17 0xE5 0x0B 0xF5 0x10 0xE5 0xFA 0xCC
write to 0x36 ack data: 0x2D 0x40 
read to 0x36 ack data: 0x0A 0xF5 0x11 0xE5 0x02 0xF5 0x09 0xE5 0x03 0xF5 0x08 0xE5 0x00 0xF5 0x0B 0xE5 0x01 0xF5 0x0A 0x90 0x42 0xC4 0xE0 0xF5 0x0D 0xA3 0xE0 0xF5 0x0C 0x90 0x42 0xC6 0xE0 0xF5 0x0F 0xA3 0xE0 0xF5 0x0E 0x12 0x34 0x90 0xE5 0x0D 0xF5 0x09 0xE5 0x0C 0xF5 0x08 0x90 0x42 0xD0 0xE0 0xF5 0x0D 0xA3 0xE0 0xF5 0x0C 0x90 0x42 0xD2 0xE0 0xFC 0xFD
write to 0x36 ack data: 0x2D 0x80 
read to 0x36 ack data: 0xF5 0x0F 0xA3 0xE0 0xF5 0x0E 0x12 0x27 0xB8 0xE5 0x0B 0xF5 0x06 0xE5 0x0A 0xF5 0x07 0xE5 0x09 0xF5 0x04 0xE5 0x08 0xF5 0x05 0xE5 0x13 0xF5 0x0B 0xE5 0x12 0xF5 0x0A 0x12 0x3B 0x2A 0xE5 0x06 0xF5 0x0D 0xE5 0x07 0xF5 0x0C 0xE5 0x04 0xF5 0x0F 0xE5 0x05 0xF5 0x0E 0x12 0x34 0x90 0xE5 0x0D 0xF5 0x09 0xE5 0x0C 0xF5 0x08 0xE5 0xD7 0x2D
write to 0x36 ack data: 0x2D 0xC0 
read to 0x36 ack data: 0x16 0xF5 0x0D 0xE5 0x17 0xF5 0x0C 0xE5 0x10 0xF5 0x0F 0xE5 0x11 0xF5 0x0E 0x12 0x27 0xB8 0xE5 0x0B 0xF5 0x16 0xE5 0x0A 0xF5 0x17 0xE5 0x09 0xF5 0x10 0xE5 0x08 0xF5 0x11 0xE5 0x02 0xF5 0x09 0xE5 0x03 0xF5 0x08 0xE5 0x00 0xF5 0x0B 0xE5 0x01 0xF5 0x0A 0x90 0x42 0xC8 0xE0 0xF5 0x0D 0xA3 0xE0 0xF5 0x0C 0x90 0x42 0xCA 0xE0 0xE9 0xB0
write to 0x36 ack data: 0x2E 0x00 
read to 0x36 ack data: 0xF5 0x0F 0xA3 0xE0 0xF5 0x0E 0x12 0x34 0x90 0xE5 0x0D 0xF5 0x09 0xE5 0x0C 0xF5 0x08 0x90 0x42 0xD4 0xE0 0xF5 0x0D 0xA3 0xE0 0xF5 0x0C 0x90 0x42 0xD6 0xE0 0xF5 0x0F 0xA3 0xE0 0xF5 0x0E 0x12 0x27 0xB8 0xE5 0x0B 0xF5 0x0D 0xE5 0x0A 0xF5 0x0C 0xE5 0x09 0xF5 0x0F 0xE5 0x08 0xF5 0x0E 0xE5 0x16 0xF5 0x09 0xE5 0x17 0xF5 0x08 0xDF 0x76
write to 0x36 ack data: 0x2E 0x40 
read to 0x36 ack data: 0xE5 0x10 0xF5 0x0B 0xE5 0x11 0xF5 0x0A 0x12 0x27 0xB8 0x12 0x3A 0x01 0xD0 0x17 0xD0 0x16 0xD0 0x11 0xD0 0x10 0xD0 0x07 0xD0 0x06 0xD0 0x05 0xD0 0x04 0xD0 0x03 0xD0 0x02 0xD0 0x01 0xD0 0x00 0x22 0x22 0x12 0x3D 0x89 0xBF 0x01 0x0A 0x74 0x05 0xF5 0x09 0x74 0x4D 0xF5 0x08 0x80 0x42 0xBF 0x02 0x0A 0x74 0x03 0xF5 0x09 0x74 0xC0 0xB0
write to 0x36 ack data: 0x2E 0x80 
read to 0x36 ack data: 0x48 0xF5 0x08 0x80 0x35 0x74 0x04 0xF5 0x09 0x74 0x4C 0xF5 0x08 0x80 0x2B 0x12 0x3D 0x89 0xBF 0x01 0x0A 0x74 0x15 0xF5 0x09 0x74 0xB4 0xF5 0x08 0x80 0x1B 0xBF 0x02 0x0A 0x74 0x0D 0xF5 0x09 0x74 0xA0 0xF5 0x08 0x80 0x0E 0x74 0x13 0xF5 0x09 0x74 0xB0 0xF5 0x08 0x80 0x04 0x22 0x22 0x22 0x22 0xC0 0x07 0xC0 0x06 0xC0 0x05 0x18 0xDF
write to 0x36 ack data: 0x2E 0xC0 
read to 0x36 ack data: 0xC0 0x04 0xC0 0x01 0xC0 0x02 0xC0 0x03 0xC0 0x89 0xE5 0x08 0x54 0x3F 0xF5 0x0C 0x85 0x09 0x0D 0xE5 0x08 0x54 0xC0 0x64 0x80 0x60 0x0D 0xE5 0x08 0x54 0xC0 0x64 0x00 0x60 0x0A 0x75 0x06 0x04 0x80 0x08 0x75 0x06 0x20 0x80 0x03 0x75 0x06 0x00 0x74 0x80 0x55 0x08 0x60 0x0B 0xC3 0xE5 0x0D 0x33 0xF5 0x0D 0xE5 0x0C 0x33 0xF5 0x0C 0x78
write to 0x36 ack data: 0x2F 0x00 
read to 0x36 ack data: 0x0C 0x85 0x0D 0x05 0x85 0x0C 0x04 0x12 0x3D 0x92 0x75 0xB1 0x10 0xE5 0x06 0x64 0x20 0x60 0x23 0xE5 0x05 0x64 0x04 0x60 0x12 0xE5 0x05 0x64 0x05 0x60 0x0C 0xE5 0x05 0x64 0x03 0x60 0x06 0x75 0x05 0x04 0x75 0x06 0x04 0x75 0x01 0x0A 0x90 0x60 0x79 0xE0 0xF5 0x09 0x80 0x0B 0x75 0x01 0x50 0x90 0x60 0x6F 0xE0 0xF5 0x09 0x80 0x2E 0x9D
write to 0x36 ack data: 0x2F 0x40 
read to 0x36 ack data: 0x00 0x75 0x08 0x00 0x75 0x07 0x00 0x53 0xA2 0xDB 0x85 0x06 0xA2 0x75 0x89 0x00 0x00 0xC2 0xC6 0xC2 0xC5 0xE5 0x06 0x64 0x20 0x70 0x0B 0x43 0x8D 0x80 0x85 0x09 0xF1 0x53 0x8D 0x7F 0x80 0x03 0x85 0x09 0xA1 0x75 0xA4 0x0A 0x75 0xA5 0x00 0x75 0xA6 0x00 0x75 0xA7 0x00 0x75 0x98 0x00 0x75 0xA0 0x00 0x43 0xE8 0x03 0xE5 0x98 0xF9 0x48
write to 0x36 ack data: 0x2F 0x80 
read to 0x36 ack data: 0x54 0x02 0x60 0xFA 0x53 0xE8 0xFC 0xC3 0xE5 0xA6 0x95 0x05 0xFB 0xE5 0xA7 0x95 0x04 0xFA 0x50 0x16 0xC3 0xEB 0xF4 0x34 0x01 0xFB 0xEA 0xF4 0x34 0x00 0xFA 0xC3 0xEB 0x95 0x01 0xEA 0x94 0x00 0x40 0x1F 0x80 0x0B 0xC3 0xEB 0x95 0x01 0xEA 0x94 0x00 0x40 0x14 0x80 0x05 0xC3 0x15 0x09 0x80 0x03 0xC3 0x05 0x09 0x05 0x07 0xE5 0xD9 0xA6
write to 0x36 ack data: 0x2F 0xC0 
read to 0x36 ack data: 0x07 0x64 0xFF 0x60 0x07 0x80 0x8E 0x75 0x0B 0x01 0x80 0x03 0x75 0x0B 0x00 0x53 0xA2 0xDB 0x43 0xA2 0x04 0x75 0xC8 0x00 0x75 0xC9 0x00 0xC2 0xED 0xD0 0xE0 0x64 0x02 0x70 0x0D 0xD2 0xC5 0x00 0x00 0x00 0x00 0x00 0xD2 0xC6 0x00 0x75 0x89 0x02 0x75 0xA6 0x00 0x75 0xA7 0x00 0x75 0x98 0x00 0x75 0xA0 0x00 0x75 0xB1 0x00 0xD0 0x66 0x8C
write to 0x36 ack data: 0x30 0x00 
read to 0x36 ack data: 0x03 0xD0 0x02 0xD0 0x01 0xD0 0x04 0xD0 0x05 0xD0 0x06 0xD0 0x07 0x22 0x12 0x3D 0x89 0xBF 0x01 0x0A 0x74 0x15 0xF5 0x09 0x74 0xB4 0xF5 0x08 0x80 0x15 0xBF 0x02 0x0A 0x74 0x0D 0xF5 0x09 0x74 0xA0 0xF5 0x08 0x80 0x08 0x74 0x13 0xF5 0x09 0x74 0xB0 0xF5 0x08 0xC0 0x07 0xC0 0x06 0xC0 0x05 0xC0 0x04 0xC0 0x02 0xC0 0x03 0xC0 0xA5 0x0A
write to 0x36 ack data: 0x30 0x40 
read to 0x36 ack data: 0x89 0x74 0xC0 0x55 0x08 0xF5 0x0C 0xF5 0x0A 0xC3 0x13 0xC3 0x13 0xC3 0x13 0xC3 0x13 0xF5 0x0C 0xE5 0x0A 0xC3 0x13 0xC3 0x13 0x42 0x0C 0xE5 0x0C 0xF5 0x0A 0x53 0x0A 0x24 0x75 0x0B 0x00 0x75 0x0F 0x31 0x75 0x0E 0x00 0x74 0x03 0x55 0x0E 0x45 0x0A 0xF5 0x06 0x85 0x0B 0x07 0xE5 0x09 0x54 0xFF 0xF5 0x0D 0xE5 0x08 0x54 0x3F 0x8B 0xE0
write to 0x36 ack data: 0x30 0x80 
read to 0x36 ack data: 0xF5 0x0C 0xE5 0x0D 0x70 0x0C 0xE5 0x0C 0x70 0x08 0xF5 0x09 0x75 0x08 0x00 0x02 0x31 0x73 0x74 0x80 0x55 0x08 0x60 0x0B 0xC3 0xE5 0x0D 0x33 0xF5 0x0D 0xE5 0x0C 0x33 0xF5 0x0C 0x85 0x0D 0x05 0x85 0x0C 0x04 0x12 0x3D 0x92 0x75 0x0B 0x4A 0x75 0x0A 0x70 0x74 0x80 0xF4 0x52 0x0B 0x74 0x01 0xF4 0x52 0x0A 0x43 0x0B 0x02 0xE5 0x71 0x53
write to 0x36 ack data: 0x30 0xC0 
read to 0x36 ack data: 0x0B 0x54 0x8F 0xF5 0xC8 0xE5 0x0A 0xF5 0xC9 0x75 0xB1 0x10 0x75 0x09 0x00 0x75 0x08 0x00 0x75 0x0B 0x80 0x75 0x0A 0x00 0x85 0x06 0xA2 0x75 0x89 0x00 0x00 0xC2 0xC6 0xC2 0xC5 0xE5 0x07 0x45 0x09 0x43 0x8D 0x80 0xF5 0xF1 0x53 0x8D 0x7F 0xE5 0x06 0x45 0x08 0xF5 0xA2 0xC3 0xE5 0x0B 0x13 0xF5 0x0B 0x75 0xC8 0x02 0x75 0x0D 0x30 0x60
write to 0x36 ack data: 0x31 0x00 
read to 0x36 ack data: 0x14 0xE5 0x0D 0x14 0xF5 0x0D 0x70 0xF9 0x75 0xA4 0x0A 0x75 0xA5 0x00 0x75 0xA6 0x00 0x75 0xA7 0x00 0x75 0x98 0x00 0x75 0xA0 0x00 0x43 0xE8 0x03 0xE5 0x98 0x54 0x02 0x60 0xFA 0x53 0xE8 0xFC 0xC3 0xE5 0xA6 0x95 0x05 0xFB 0xE5 0xA7 0x95 0x04 0xFA 0x50 0x16 0xC3 0xEB 0xF4 0x34 0x01 0xFB 0xEA 0xF4 0x34 0x00 0xFA 0xC3 0xEB 0xFD 0xB4
write to 0x36 ack data: 0x31 0x40 
read to 0x36 ack data: 0x94 0x0A 0xEA 0x94 0x00 0x40 0x24 0x80 0x0B 0xC3 0xEB 0x94 0x0A 0xEA 0x94 0x00 0x40 0x19 0x80 0x09 0xC3 0xE5 0x09 0x95 0x0B 0xF5 0x09 0x80 0x07 0xC3 0xE5 0x09 0x35 0x0B 0xF5 0x09 0xE5 0x0B 0x60 0x03 0x02 0x30 0xE3 0x75 0x0B 0x01 0x80 0x03 0x75 0x0B 0x00 0x53 0xA2 0xDB 0x43 0xA2 0x04 0x75 0xC8 0x00 0x75 0xC9 0x00 0xC2 0xD8 0x05
write to 0x36 ack data: 0x31 0x80 
read to 0x36 ack data: 0xED 0x75 0xA6 0x00 0x75 0xA7 0x00 0x75 0x98 0x00 0x75 0xA0 0x00 0x75 0xB1 0x00 0xD0 0xE0 0x64 0x02 0x70 0x0D 0xD2 0xC5 0x00 0x00 0x00 0x00 0x00 0xD2 0xC6 0x00 0x75 0x89 0x02 0xD0 0x03 0xD0 0x02 0xD0 0x04 0xD0 0x05 0xD0 0x06 0xD0 0x07 0x22 0x90 0x42 0xE0 0xE0 0xC3 0x94 0x61 0x40 0x7D 0x90 0x42 0xE7 0xE0 0xF5 0xF0 0x54 0x9E 0x52
write to 0x36 ack data: 0x31 0xC0 
read to 0x36 ack data: 0x0F 0x25 0x0B 0xC0 0xE0 0xE5 0xF0 0xC4 0x54 0x0F 0xD0 0xF0 0xC3 0x95 0xF0 0xE5 0xF0 0x50 0x09 0x33 0x74 0x00 0x40 0x04 0xE0 0xC4 0x54 0x0F 0x23 0x24 0xE8 0xF5 0x82 0x43 0xED 0x20 0x53 0xB5 0x7F 0x53 0xBD 0xFE 0x43 0xB5 0x02 0x43 0xBD 0x02 0xE0 0x54 0xFC 0x53 0xBD 0x03 0x42 0xBD 0xE0 0x54 0x01 0x53 0xBE 0xFE 0x42 0xBE 0x86 0x76
write to 0x36 ack data: 0x32 0x00 
read to 0x36 ack data: 0xA3 0xE0 0x54 0x1D 0x53 0xB5 0xE2 0x42 0xB5 0xE0 0x03 0x54 0x30 0x53 0xB6 0xC1 0x42 0xB6 0xE0 0x54 0x02 0x53 0x8D 0xFD 0x42 0x8D 0xE5 0x0A 0x60 0x09 0x54 0x07 0x23 0x23 0x53 0xB5 0xE3 0x42 0xB5 0x53 0xED 0xDF 0x22 0xC0 0x00 0xC0 0x89 0xD2 0xD9 0x12 0x31 0xB0 0x80 0x4D 0x43 0xED 0x20 0x53 0xB5 0x7F 0x53 0xBD 0xFE 0x43 0x7E 0x75
write to 0x36 ack data: 0x32 0x40 
read to 0x36 ack data: 0xB5 0x02 0x43 0xBD 0x02 0x90 0x42 0x10 0xE0 0x54 0xFC 0x53 0xBD 0x03 0x42 0xBD 0xA3 0xE0 0x54 0x01 0x53 0xBE 0xFE 0x42 0xBE 0xA3 0xE0 0x54 0x01 0x53 0xB5 0xFE 0x42 0xB5 0xA3 0xE0 0xF5 0xF0 0x54 0x02 0x53 0x8D 0xFD 0x42 0x8D 0xE5 0xF0 0x54 0x30 0x53 0xB6 0xCF 0x42 0xB6 0x53 0xED 0xDF 0x22 0xC0 0x00 0xC0 0x89 0xD2 0xD9 0x15 0xF1
write to 0x36 ack data: 0x32 0x80 
read to 0x36 ack data: 0x12 0x32 0x36 0xA8 0x08 0xE5 0x09 0x54 0x0F 0xF5 0xCF 0xD2 0xD8 0x75 0x89 0x00 0x00 0xC2 0xC6 0xC2 0xC5 0x75 0xCE 0x00 0x75 0xCD 0x00 0x12 0x3F 0x35 0xE5 0x09 0x53 0x09 0x0F 0x54 0xF0 0xC4 0x70 0x02 0x74 0x04 0xC3 0x33 0xC3 0x33 0x75 0xA5 0x00 0xF5 0xA4 0xD2 0xE8 0x75 0x98 0x00 0x75 0xA0 0x00 0x43 0x87 0x01 0x00 0x00 0x4D 0x22
write to 0x36 ack data: 0x32 0xC0 
read to 0x36 ack data: 0x00 0xE5 0x98 0x54 0x20 0x70 0x02 0x80 0x45 0xE5 0xCD 0x65 0x0F 0x70 0xE6 0xE5 0xCE 0x65 0x0E 0x70 0xE0 0xE5 0xCE 0xF6 0x08 0xE5 0xCD 0xF6 0x75 0x98 0x00 0x75 0xA0 0x00 0x75 0x08 0x01 0x15 0x09 0xE5 0x09 0x60 0x26 0x75 0x98 0x00 0x75 0xA0 0x00 0x43 0x87 0x01 0x00 0x00 0x00 0xE5 0x98 0x54 0x30 0x70 0x02 0x60 0x0F 0x08 0x5B 0x10
write to 0x36 ack data: 0x33 0x00 
read to 0x36 ack data: 0xE5 0xCE 0xF6 0x08 0xE5 0xCD 0xF6 0x05 0x08 0xD5 0x09 0xDF 0x80 0x03 0x75 0x08 0xFF 0xD0 0xE0 0x64 0x02 0x70 0x0D 0xD2 0xC5 0x00 0x00 0x00 0x00 0x00 0xD2 0xC6 0x00 0x75 0x89 0x02 0xD0 0x00 0xAF 0x08 0xC2 0xE8 0xC2 0xD8 0xC2 0xD9 0x75 0xA4 0x00 0x75 0xA5 0x00 0x75 0xCD 0x00 0x75 0xCE 0x00 0x75 0x98 0x00 0x75 0xA0 0x00 0x36 0x6C
write to 0x36 ack data: 0x33 0x40 
read to 0x36 ack data: 0x12 0x3F 0x2B 0x22 0x90 0x60 0x7E 0x74 0x5A 0xF0 0x90 0x60 0x7D 0x74 0x5A 0xF0 0x90 0x60 0x7C 0x74 0xA5 0xF0 0x90 0x60 0x7B 0x74 0xA5 0xF0 0x22 0x12 0x33 0x44 0x75 0x98 0x00 0x75 0xA0 0x00 0x8E 0xE6 0x8F 0xE5 0xBD 0x00 0x26 0xBC 0x00 0x23 0xBB 0x00 0x20 0xBA 0x00 0x1D 0x53 0xA2 0xDB 0x75 0x89 0x00 0x00 0xC2 0xC6 0xC2 0x76 0x48
write to 0x36 ack data: 0x33 0x80 
read to 0x36 ack data: 0xC5 0x43 0xA2 0x20 0x43 0x87 0x80 0x00 0x00 0x00 0x75 0x98 0x00 0x75 0xA0 0x00 0x02 0x00 0x00 0x8C 0x86 0x8D 0x84 0xBB 0x00 0x07 0xBA 0x00 0x04 0x7A 0x0F 0x7B 0xFF 0x43 0x8D 0x80 0x75 0xF3 0x72 0x75 0xF4 0x1C 0x75 0xF5 0xA9 0x12 0x32 0x36 0x43 0xF3 0x04 0x43 0x87 0x08 0x8A 0xD3 0xEB 0x54 0xF0 0xF5 0xD2 0xEB 0xC4 0x54 0x0F 0xFF
write to 0x36 ack data: 0x33 0xC0 
read to 0x36 ack data: 0xF0 0xF5 0xD1 0x43 0x87 0x80 0x00 0x00 0x00 0x75 0x98 0x00 0x75 0xA0 0x00 0x53 0x8D 0x7F 0x02 0x00 0x00 0x12 0x33 0x44 0x75 0x98 0x00 0x75 0xA0 0x00 0x8E 0xE6 0x8F 0xE5 0x8C 0x86 0x8D 0x84 0x8A 0x86 0x8B 0x84 0xAA 0x08 0xAB 0x09 0x43 0x8D 0x80 0x75 0xF3 0x7A 0x75 0xF4 0x1C 0x75 0xF5 0xA9 0x12 0x32 0x36 0x43 0xF3 0x04 0xDA 0xE6
write to 0x36 ack data: 0x34 0x00 
read to 0x36 ack data: 0x43 0x87 0x08 0x8A 0xD3 0xEB 0x54 0xF0 0xF5 0xD2 0xEB 0xC4 0x54 0xF0 0xF5 0xD1 0x43 0x87 0x80 0x00 0x00 0x00 0x75 0x98 0x00 0x75 0xA0 0x00 0x53 0x8D 0x7F 0x02 0x00 0x00 0x12 0x33 0x44 0x75 0x98 0x00 0x75 0xA0 0x00 0x8E 0xE6 0x8F 0xE5 0x75 0x86 0xFF 0x75 0x84 0xFF 0x43 0x8D 0x80 0x75 0xF3 0xF2 0x75 0xF4 0x1C 0x75 0xF5 0xD5 0x9A
write to 0x36 ack data: 0x34 0x40 
read to 0x36 ack data: 0xA9 0x12 0x32 0x36 0x43 0xF3 0x04 0x43 0x87 0x08 0x8C 0xD3 0xED 0x54 0xF0 0xF5 0xD2 0xED 0xC4 0x54 0xF0 0xF5 0xD1 0x43 0x87 0x80 0x00 0x00 0x00 0x75 0x98 0x00 0x75 0xA0 0x00 0x53 0x8D 0x7F 0x02 0x00 0x00 0x75 0xE6 0xFF 0x75 0xE5 0xFF 0x75 0x98 0x00 0x75 0xA0 0x00 0x90 0x60 0x7E 0x74 0x5A 0xF0 0x90 0x60 0x7D 0x74 0xBC 0x0C 0x6D
write to 0x36 ack data: 0x34 0x80 
read to 0x36 ack data: 0xF0 0x90 0x60 0x7C 0x74 0xCB 0xF0 0x90 0x60 0x7B 0x74 0xA5 0xF0 0x02 0x00 0x00 0xC0 0x00 0xC0 0x01 0xC0 0x02 0xC0 0x03 0xC0 0x04 0xC0 0x05 0xC0 0x06 0xC0 0x07 0xC0 0x16 0xC0 0x17 0xE5 0x09 0xF5 0x00 0xE5 0x08 0xF5 0x01 0xE5 0x0B 0xF5 0x02 0xE5 0x0A 0xF5 0x03 0xE5 0x0D 0xF5 0x04 0xE5 0x0C 0xF5 0x05 0xE5 0x0F 0xF5 0x06 0x16 0x44
write to 0x36 ack data: 0x34 0xC0 
read to 0x36 ack data: 0xE5 0x0E 0xF5 0x07 0xE5 0x00 0xF5 0x0D 0x75 0x0C 0x00 0xE5 0x04 0xF5 0x0B 0x75 0x0A 0x00 0x75 0x0F 0x00 0x75 0x0E 0x00 0xE5 0x0D 0x70 0x03 0x02 0x35 0x8D 0xE5 0x0B 0x70 0x03 0x02 0x35 0x8D 0xC3 0xE5 0x0D 0x35 0x0B 0xF5 0x0B 0xE5 0x0C 0x35 0x0A 0xF5 0x0A 0xC3 0xE5 0x0B 0x94 0x7F 0xF5 0x0B 0xE5 0x0A 0x94 0x00 0xF5 0x0A 0xD0 0x9A
write to 0x36 ack data: 0x35 0x00 
read to 0x36 ack data: 0xE5 0x0B 0xF5 0x16 0x75 0x17 0x00 0xE5 0x02 0xF5 0x0B 0xE5 0x03 0xF5 0x0A 0xE5 0x06 0xF5 0x0D 0xE5 0x07 0xF5 0x0C 0xD3 0xE5 0x0A 0x13 0xF5 0x0A 0xE5 0x0B 0x13 0xF5 0x0B 0xD3 0xE5 0x0C 0x13 0xF5 0x0C 0xE5 0x0D 0x13 0xF5 0x0D 0x75 0x09 0x00 0x75 0x08 0x00 0x12 0x3A 0x9E 0xE5 0x16 0xF5 0x0D 0x75 0x0C 0x00 0x05 0x0D 0xE5 0x51 0xC7
write to 0x36 ack data: 0x35 0x40 
read to 0x36 ack data: 0x0A 0x33 0xF5 0x0A 0xE5 0x09 0x33 0xF5 0x09 0xE5 0x08 0x33 0xF5 0x08 0x40 0x05 0x15 0x0D 0x02 0x35 0x3F 0xE5 0x09 0xF5 0x0B 0xE5 0x08 0xF5 0x0A 0xE5 0x0D 0xF5 0x16 0xE5 0x0C 0xF5 0x17 0xE5 0x01 0xF5 0x0C 0xE5 0x05 0xF5 0x0E 0x75 0x08 0x80 0x75 0x09 0x00 0xC3 0xE5 0x0C 0x95 0x0E 0xF5 0x0E 0xE5 0x16 0xF5 0x0D 0xE5 0x17 0xC0 0x62
write to 0x36 ack data: 0x35 0x80 
read to 0x36 ack data: 0xF5 0x0C 0xE5 0x0E 0x60 0x17 0xE5 0x08 0x42 0x0C 0x02 0x35 0x9D 0xE5 0x0F 0xF5 0x0B 0xE5 0x0E 0xF5 0x0A 0xE5 0x0F 0xF5 0x0D 0xE5 0x0E 0xF5 0x0C 0xD0 0x17 0xD0 0x16 0xD0 0x07 0xD0 0x06 0xD0 0x05 0xD0 0x04 0xD0 0x03 0xD0 0x02 0xD0 0x01 0xD0 0x00 0x22 0xAC 0x05 0x78 0x08 0xA6 0x07 0xEC 0x30 0xE0 0x05 0x08 0x76 0x01 0x80 0x4C 0x96
write to 0x36 ack data: 0x35 0xC0 
read to 0x36 ack data: 0x04 0x78 0x09 0xE4 0xF6 0x78 0x08 0xE6 0x60 0x61 0x75 0x16 0x10 0x75 0x17 0x00 0x90 0x42 0x9C 0xE0 0x54 0x40 0x13 0x13 0x13 0x54 0x1F 0x78 0x0D 0xF6 0xE0 0x54 0x04 0x75 0xF0 0x40 0xA4 0xFF 0xA3 0xE0 0xFB 0xEF 0x4B 0x08 0xA6 0xF0 0x08 0xF6 0x12 0x3E 0xA9 0xEC 0x30 0xE1 0x03 0x12 0x3F 0x69 0x78 0x09 0xE6 0x60 0x1A 0xEC 0x59 0xE5
write to 0x36 ack data: 0x36 0x00 
read to 0x36 ack data: 0x54 0x30 0xFF 0x90 0x60 0x60 0xE4 0xF0 0xA3 0x74 0x32 0xF0 0x90 0x60 0x62 0x74 0xFF 0xF0 0xA3 0x74 0xCE 0xF0 0x12 0x2A 0x44 0x12 0x39 0x50 0xE5 0x10 0xA2 0xE7 0x13 0xF5 0x10 0xE5 0x11 0x13 0xF5 0x11 0x02 0x36 0xCB 0x75 0x16 0x08 0x75 0x17 0x00 0xEC 0x90 0x42 0x9C 0x20 0xE7 0x20 0xE0 0x54 0x20 0x13 0x13 0x54 0x3F 0x78 0x28 0x32
write to 0x36 ack data: 0x36 0x40 
read to 0x36 ack data: 0x0D 0xF6 0xE0 0x54 0x02 0x75 0xF0 0x80 0xA4 0xFF 0x90 0x42 0x9E 0xE0 0xFB 0xEF 0x4B 0x08 0xA6 0xF0 0x08 0xF6 0x80 0x18 0xE0 0x54 0x10 0xFF 0xC3 0x13 0x78 0x0D 0xF6 0xE0 0x54 0x01 0xFE 0x90 0x42 0x9F 0xE0 0xFB 0xEB 0x08 0xA6 0x06 0x08 0xF6 0x12 0x3E 0xA9 0xEC 0x30 0xE1 0x03 0x12 0x3F 0x69 0x78 0x09 0xE6 0x60 0x49 0xEC 0x98 0xAE
write to 0x36 ack data: 0x36 0x80 
read to 0x36 ack data: 0x54 0x30 0xFF 0xBF 0x10 0x16 0x90 0x60 0x60 0x74 0x04 0xF0 0xA3 0x74 0xB0 0xF0 0x90 0x60 0x62 0x74 0x03 0xF0 0xA3 0x74 0xE8 0xF0 0x80 0x29 0x90 0x60 0x60 0xBF 0x20 0x13 0x74 0xFC 0xF0 0xA3 0x74 0x18 0xF0 0x90 0x60 0x62 0x74 0xFB 0xF0 0xA3 0x74 0x50 0xF0 0x80 0x10 0xE4 0xF0 0xA3 0x74 0x32 0xF0 0x90 0x60 0x62 0x74 0xFF 0xDB 0xB4
write to 0x36 ack data: 0x36 0xC0 
read to 0x36 ack data: 0xF0 0xA3 0x74 0xCE 0xF0 0x12 0x2A 0x44 0x12 0x39 0x50 0xAE 0x10 0xAF 0x11 0x22 0xC0 0x00 0xC0 0x01 0xC0 0x02 0xC0 0x03 0x8E 0x0A 0x8F 0x0B 0x12 0x3B 0x2A 0x85 0x08 0x00 0x85 0x09 0x01 0x85 0x0A 0x02 0x85 0x0B 0x03 0x75 0xF0 0x00 0x85 0x04 0x83 0x85 0x05 0x82 0x12 0x37 0x98 0x12 0x34 0x90 0x85 0x0D 0x09 0x85 0x0C 0x08 0x23 0x92
write to 0x36 ack data: 0x37 0x00 
read to 0x36 ack data: 0x75 0xF0 0x08 0x85 0x04 0x83 0x85 0x05 0x82 0x12 0x37 0x98 0x12 0x27 0xB8 0xC0 0x08 0xC0 0x09 0xC0 0x0A 0xC0 0x0B 0x85 0x10 0x0A 0x85 0x11 0x0B 0x12 0x3B 0x2A 0xD0 0x0D 0xD0 0x0C 0xD0 0x0F 0xD0 0x0E 0x12 0x34 0x90 0xC0 0x0C 0xC0 0x0D 0xC0 0x0A 0xC0 0x0B 0x85 0x00 0x08 0x85 0x01 0x09 0x85 0x02 0x0A 0x85 0x03 0x0B 0x75 0x6E 0x38
write to 0x36 ack data: 0x37 0x40 
read to 0x36 ack data: 0xF0 0x04 0x85 0x04 0x83 0x85 0x05 0x82 0x12 0x37 0x98 0x12 0x34 0x90 0x85 0x0D 0x09 0x85 0x0C 0x08 0x75 0xF0 0x0C 0x85 0x04 0x83 0x85 0x05 0x82 0x12 0x37 0x98 0x12 0x27 0xB8 0x85 0x0A 0x0C 0x85 0x0B 0x0D 0x85 0x08 0x0E 0x85 0x09 0x0F 0xD0 0x0B 0xD0 0x0A 0xD0 0x09 0xD0 0x08 0x12 0x27 0xB8 0x12 0x3A 0x01 0xAE 0x0A 0xAF 0xE5 0x84
write to 0x36 ack data: 0x37 0x80 
read to 0x36 ack data: 0x0B 0xD0 0x03 0xD0 0x02 0xD0 0x01 0xD0 0x00 0x22 0xC3 0xE5 0x82 0x35 0xF0 0xF5 0x82 0xE5 0x83 0x34 0x00 0xF5 0x83 0x22 0x12 0x37 0x8A 0xE0 0xF5 0x0D 0xA3 0xE0 0xF5 0x0C 0xA3 0xE0 0xF5 0x0F 0xA3 0xE0 0xF5 0x0E 0x22 0xC0 0x00 0xC0 0x01 0xC0 0x02 0xC0 0x03 0xC0 0x04 0xC0 0x05 0xC0 0x89 0x75 0x00 0xD0 0x75 0x01 0x07 0x75 0xE3 0x85
write to 0x36 ack data: 0x37 0xC0 
read to 0x36 ack data: 0x05 0x00 0x85 0x05 0xA3 0x53 0xA3 0x1F 0x75 0x03 0x00 0x75 0x89 0x00 0xD2 0xC5 0xD2 0xC6 0xE5 0xA3 0xC3 0x94 0x1F 0x40 0x02 0x80 0x77 0x75 0xA6 0x00 0x75 0xA7 0x00 0x75 0xA4 0x27 0x75 0xA5 0x00 0x85 0x05 0xA3 0x75 0xB1 0x08 0x75 0xE8 0x03 0x75 0x98 0x00 0x75 0xA0 0x00 0x43 0x87 0x01 0x00 0x00 0x00 0xC2 0xE9 0xC2 0xE8 0xAD 0x42
write to 0x36 ack data: 0x38 0x00 
read to 0x36 ack data: 0x75 0x98 0x00 0x75 0xA0 0x00 0x85 0xA6 0x09 0x85 0xA7 0x08 0x75 0xA6 0x00 0x75 0xA7 0x00 0xC3 0xE5 0x09 0x95 0x00 0xF5 0x0F 0xE5 0x08 0x95 0x01 0xF5 0x0E 0x50 0x1C 0xC3 0xE5 0x0F 0xF4 0x34 0x01 0xF5 0x0F 0xE5 0x0E 0xF4 0x34 0x00 0xF5 0x0E 0xC3 0xE5 0x0F 0x94 0x1E 0xE5 0x0E 0x94 0x00 0x40 0x1A 0x80 0x0D 0xC3 0xE5 0x0F 0xD6 0xFC
write to 0x36 ack data: 0x38 0x40 
read to 0x36 ack data: 0x94 0x1E 0xE5 0x0E 0x94 0x00 0x40 0x0D 0x80 0x04 0x05 0x05 0x80 0x84 0x15 0x05 0x80 0x03 0x75 0x03 0x01 0x85 0x05 0xA3 0x75 0xB1 0x00 0x85 0x03 0x0D 0xC2 0xC6 0xC2 0xC5 0xD0 0xE0 0x64 0x02 0x70 0x0D 0xD2 0xC5 0x00 0x00 0x00 0x00 0x00 0xD2 0xC6 0x00 0x75 0x89 0x02 0xD0 0x05 0xD0 0x04 0xD0 0x03 0xD0 0x02 0xD0 0x01 0xD0 0x57 0xAF
write to 0x36 ack data: 0x38 0x80 
read to 0x36 ack data: 0x00 0x22 0xC0 0x89 0xEF 0x54 0x0F 0xF5 0xCF 0x75 0x89 0x00 0x00 0xC2 0xC6 0xC2 0xC5 0x43 0xED 0x20 0x53 0xB6 0xFE 0x53 0xB5 0x7F 0x53 0xBD 0xFD 0x43 0xBE 0x04 0x53 0xED 0xDF 0x12 0x3F 0x35 0x75 0xB1 0x01 0x75 0xA4 0x14 0x75 0xA5 0x00 0xD2 0xD8 0xD2 0xE8 0x75 0x98 0x00 0x75 0xA0 0x00 0x43 0x87 0x01 0x00 0x00 0x00 0xC2 0x40 0x54
write to 0x36 ack data: 0x38 0xC0 
read to 0x36 ack data: 0xE8 0x75 0xB1 0x00 0xD2 0xD9 0x75 0xA0 0x00 0x75 0x98 0x00 0xEF 0x54 0xF0 0x60 0x03 0xC4 0x80 0x02 0x74 0x03 0x75 0xA5 0x00 0xF5 0xA4 0x75 0xB1 0x01 0x90 0x60 0x6F 0xE0 0xF5 0xA1 0x53 0xA2 0xDB 0x43 0xA2 0x20 0xD2 0xE8 0x75 0x98 0x00 0x75 0xA0 0x00 0x43 0x87 0x01 0x00 0x00 0x00 0x53 0xA2 0xDB 0x43 0xA2 0x04 0x90 0x60 0x7C 0xB1
write to 0x36 ack data: 0x39 0x00 
read to 0x36 ack data: 0x79 0xE0 0xF5 0xA1 0xC2 0xE8 0x75 0xB1 0x00 0xE5 0x98 0x54 0x20 0x70 0x02 0x80 0x04 0x7F 0x00 0x80 0x02 0x7F 0xFF 0xD0 0xE0 0x64 0x02 0x70 0x0D 0xD2 0xC5 0x00 0x00 0x00 0x00 0x00 0xD2 0xC6 0x00 0x75 0x89 0x02 0xC2 0xE8 0xC2 0xD8 0xC2 0xD9 0x75 0xA4 0x00 0x75 0xA5 0x00 0x75 0xCD 0x00 0x75 0xCE 0x00 0x75 0x98 0x00 0x75 0xDB 0xDD
write to 0x36 ack data: 0x39 0x40 
read to 0x36 ack data: 0xA0 0x00 0x12 0x3F 0x2B 0x22 0x78 0x0F 0x74 0x10 0x26 0xF6 0x18 0xE4 0x36 0xF6 0x43 0x8D 0x80 0x78 0x0D 0xE6 0xF5 0xFD 0x08 0x08 0xE6 0xF5 0xFE 0x53 0x8D 0x7F 0x53 0x8E 0xFC 0x78 0x08 0xE6 0x70 0x05 0x43 0x8E 0x01 0x80 0x09 0x78 0x08 0xE6 0xB4 0x02 0x03 0x43 0x8E 0x02 0x43 0x8D 0x40 0x43 0xC0 0x02 0xE4 0xF5 0x98 0xF5 0x6D 0xB3
write to 0x36 ack data: 0x39 0x80 
read to 0x36 ack data: 0xA0 0xC2 0xE8 0x75 0xA4 0x19 0xF5 0xA5 0xD2 0xE8 0x43 0x87 0x01 0x00 0x00 0x00 0xE5 0x98 0x30 0xE1 0xFB 0xC2 0xE8 0xD2 0xC5 0x78 0x0E 0xE6 0xFE 0xEE 0x30 0xE0 0x05 0x43 0xEB 0x40 0x80 0x03 0x53 0xEB 0xBF 0x75 0xE2 0x02 0xE4 0xF5 0xE1 0xD2 0xC6 0xF5 0x98 0xF5 0xA0 0x85 0x17 0xA4 0xE5 0x16 0xF5 0xA5 0xE4 0xF5 0xA6 0xF5 0xF7 0x6F
write to 0x36 ack data: 0x39 0xC0 
read to 0x36 ack data: 0xA7 0x43 0xEB 0x08 0xF5 0xD9 0xD2 0xC7 0xF5 0x10 0x75 0x11 0x10 0xE5 0x11 0x15 0x11 0xAE 0x10 0x70 0x02 0x15 0x10 0x4E 0x70 0xF3 0x43 0xE8 0x03 0x43 0x87 0x01 0x00 0x00 0x00 0xE5 0x98 0x30 0xE1 0xFB 0xC2 0xC7 0x53 0xE8 0xFC 0xAF 0xA7 0xEF 0xAD 0xA6 0xF5 0x10 0xED 0xF5 0x11 0x53 0xEB 0xF7 0x53 0xC0 0xFD 0x53 0x8D 0xBF 0xEA 0xBF
write to 0x36 ack data: 0x3A 0x00 
read to 0x36 ack data: 0x22 0xC0 0x00 0xC0 0x01 0xC0 0x02 0xC0 0x03 0xE5 0x09 0xF5 0x00 0xE5 0x08 0xF5 0x01 0xE5 0x0B 0xF5 0x02 0xE5 0x0A 0xF5 0x03 0xE5 0x02 0x70 0x04 0xE5 0x03 0x60 0x74 0x53 0x0B 0xFF 0x75 0x0A 0x00 0xC3 0xE5 0x0B 0x94 0x8E 0x50 0x5B 0xC3 0xE5 0x0B 0x94 0x7F 0xF5 0x0B 0x40 0x52 0xE5 0x0B 0xF5 0x09 0x75 0x0B 0x01 0xE5 0x09 0xC7 0x52
write to 0x36 ack data: 0x3A 0x40 
read to 0x36 ack data: 0x60 0x23 0xE5 0x00 0xF5 0x0F 0xE5 0x01 0xF5 0x0E 0xC3 0xE5 0x0F 0x33 0xF5 0x0F 0xE5 0x0E 0x33 0xF5 0x0E 0xE5 0x0B 0x33 0xF5 0x0B 0xE5 0x0A 0x33 0xF5 0x0A 0x15 0x09 0xE5 0x09 0x70 0xE5 0x75 0x09 0x00 0x75 0x08 0x00 0xE5 0x02 0xF5 0x0F 0xE5 0x03 0xF5 0x0E 0xC3 0x33 0x50 0x1E 0xC3 0xE5 0x0B 0xF4 0x34 0x01 0xF5 0x0B 0xE5 0x0B 0xC5
write to 0x36 ack data: 0x3A 0x80 
read to 0x36 ack data: 0x0A 0xF4 0x34 0x00 0xF5 0x0A 0x02 0x3A 0x95 0x75 0x0B 0x00 0x75 0x0A 0x00 0x75 0x09 0x01 0x75 0x08 0x00 0xD0 0x03 0xD0 0x02 0xD0 0x01 0xD0 0x00 0x22 0xC0 0x00 0xC0 0x01 0xC0 0x02 0xC0 0x03 0xC0 0x04 0xC0 0x05 0xC0 0x06 0xC0 0x07 0xE5 0x0B 0x85 0x0D 0xF0 0xA4 0xF5 0x00 0x85 0xF0 0x01 0xE5 0x0B 0x85 0x0C 0xF0 0xA4 0xF5 0x41 0x70
write to 0x36 ack data: 0x3A 0xC0 
read to 0x36 ack data: 0x02 0x85 0xF0 0x03 0xE5 0x0A 0x85 0x0D 0xF0 0xA4 0xF5 0x04 0x85 0xF0 0x05 0xE5 0x0A 0x85 0x0C 0xF0 0xA4 0xF5 0x06 0x85 0xF0 0x07 0xC3 0xE5 0x00 0xF5 0x0B 0xE5 0x02 0x35 0x04 0xC0 0xE0 0x74 0x00 0x34 0x00 0xF5 0xF0 0xD0 0xE0 0x25 0x01 0xF5 0x0A 0x74 0x00 0x35 0xF0 0x25 0x03 0xC0 0xE0 0x74 0x00 0x34 0x00 0xF5 0xF0 0xD0 0x0E 0x4A
write to 0x36 ack data: 0x3B 0x00 
read to 0x36 ack data: 0xE0 0x25 0x05 0xC0 0xE0 0x74 0x00 0x35 0xF0 0xF5 0xF0 0xD0 0xE0 0x25 0x06 0xF5 0x09 0x74 0x00 0x35 0xF0 0x35 0x07 0xF5 0x08 0xD0 0x07 0xD0 0x06 0xD0 0x05 0xD0 0x04 0xD0 0x03 0xD0 0x02 0xD0 0x01 0xD0 0x00 0x22 0x75 0x08 0x00 0x75 0x09 0x00 0x75 0x0E 0x00 0x75 0x0F 0x00 0x75 0x0C 0x00 0x75 0x0D 0x00 0xE5 0x0A 0x70 0x04 0xBC 0x4F
write to 0x36 ack data: 0x3B 0x40 
read to 0x36 ack data: 0xE5 0x0B 0x60 0x4F 0xC3 0xE5 0x0A 0x33 0x50 0x15 0xC3 0xE5 0x0B 0xF4 0x34 0x01 0xF5 0x0B 0xE5 0x0A 0xF4 0x34 0x00 0xF5 0x0A 0x75 0x09 0x00 0x75 0x08 0x80 0x75 0x0C 0x00 0x75 0x0D 0x00 0x75 0x0E 0x00 0x75 0x0F 0x7F 0xC3 0xE5 0x0A 0x13 0xF5 0x0A 0xE5 0x0B 0x13 0xF5 0x0B 0xE5 0x0B 0x70 0x04 0xE5 0x0A 0x60 0x15 0xE5 0x0C 0x89 0x67
write to 0x36 ack data: 0x3B 0x80 
read to 0x36 ack data: 0x13 0xF5 0x0C 0xE5 0x0D 0x13 0xF5 0x0D 0xC3 0x05 0x0F 0xE5 0x0E 0x34 0x00 0xF5 0x0E 0x80 0xD8 0xE5 0x0E 0x42 0x08 0xE5 0x0F 0x42 0x09 0xE5 0x0C 0xF5 0x0A 0xE5 0x0D 0xF5 0x0B 0x22 0x78 0x08 0xE6 0xFF 0xE4 0xFD 0x12 0x35 0xB2 0xAF 0x11 0xAE 0x10 0x12 0x3F 0x5D 0xD3 0xEF 0x94 0x08 0xEE 0x64 0x80 0x94 0x87 0x40 0x48 0x75 0xA7 0x78
write to 0x36 ack data: 0x3B 0xC0 
read to 0x36 ack data: 0x16 0x08 0x75 0x17 0x00 0x78 0x0E 0x76 0x01 0x08 0x76 0xF0 0xD3 0xE5 0x11 0x94 0x00 0xE5 0x10 0x64 0x80 0x94 0x80 0x40 0x06 0x78 0x0D 0xE4 0xF6 0x80 0x0D 0xC3 0xE5 0x10 0x64 0x80 0x94 0x80 0x50 0x04 0x78 0x0D 0x76 0x08 0x12 0x3E 0xA9 0x12 0x39 0x50 0xAF 0x11 0xAE 0x10 0x12 0x3F 0x5D 0xD3 0xEF 0x94 0x08 0xEE 0x64 0x80 0xE2 0x73
write to 0x36 ack data: 0x3C 0x00 
read to 0x36 ack data: 0x94 0x87 0x40 0x03 0x7F 0xFF 0x22 0x7F 0x00 0x22 0x78 0x08 0x76 0x01 0x75 0x16 0x07 0x75 0x17 0xFF 0x90 0x42 0x9C 0xE0 0x54 0x40 0x13 0x13 0x13 0x54 0x1F 0x78 0x0D 0xF6 0xE0 0x54 0x04 0x75 0xF0 0x40 0xA4 0xFF 0xA3 0xE0 0xFD 0xEF 0x4D 0x08 0xA6 0xF0 0x08 0xF6 0x12 0x3E 0xA9 0x12 0x3F 0x50 0x12 0x39 0x50 0xAF 0x11 0xAE 0x01 0x24
write to 0x36 ack data: 0x3C 0x40 
read to 0x36 ack data: 0x10 0x12 0x3F 0x5D 0xEE 0x33 0x95 0xE0 0xFD 0xFC 0xE4 0x7B 0x32 0xFA 0xF9 0xF8 0xC3 0x12 0x3F 0x15 0x50 0x16 0x90 0x60 0x60 0xE4 0xF0 0xA3 0x74 0x32 0xF0 0x90 0x60 0x62 0x74 0xFF 0xF0 0xA3 0x74 0xCE 0xF0 0x12 0x2A 0x44 0x22 0xEF 0x54 0x80 0xFF 0x43 0x8F 0x80 0x90 0x70 0x00 0x74 0x55 0xF0 0x74 0xAA 0xF0 0x8E 0x83 0x8F 0x71 0xDA
write to 0x36 ack data: 0x3C 0x80 
read to 0x36 ack data: 0x82 0x74 0xFF 0xF0 0x53 0x8F 0x7F 0x22 0xEF 0x54 0xC0 0xFF 0x43 0x8F 0x80 0x90 0x70 0x00 0x74 0x55 0xF0 0x74 0xAA 0xF0 0x8E 0x83 0x8F 0x82 0x74 0x00 0xF0 0x53 0x8F 0x7F 0x22 0xEB 0x60 0x10 0x8E 0x83 0x8F 0x82 0xC0 0x00 0xED 0xF8 0xE0 0xF6 0x08 0xA3 0xDB 0xFA 0xD0 0x00 0x22 0x90 0x42 0x10 0xE0 0xF5 0x0D 0xA3 0xE0 0xF5 0xC0 0x13
write to 0x36 ack data: 0x3C 0xC0 
read to 0x36 ack data: 0x0C 0xE5 0x0D 0x45 0x0B 0xF5 0xBD 0xE5 0x0C 0x45 0x0A 0xF5 0xBE 0x90 0x42 0x12 0xE0 0xF5 0x0D 0xA3 0xE0 0xF5 0x0C 0x85 0x0D 0xB5 0x85 0x0C 0xB6 0x90 0x42 0x28 0xE0 0xF5 0x8D 0x22 0x75 0x0B 0x02 0x75 0x0A 0x00 0x12 0x3C 0xB7 0xD2 0xD8 0x75 0x09 0x18 0x15 0x09 0xE5 0x09 0x70 0xFA 0x75 0xCD 0x3C 0x75 0xCE 0x0F 0x22 0x43 0x6D 0xFE
write to 0x36 ack data: 0x3D 0x00 
read to 0x36 ack data: 0xEF 0x40 0x43 0x8D 0xC0 0x75 0xF6 0xC0 0x75 0xF7 0x0C 0x75 0xF9 0x80 0x75 0xFA 0x50 0x75 0xFB 0x0C 0xE4 0xF5 0xFC 0x78 0x0D 0xE6 0xF5 0xFD 0x08 0x08 0xE6 0xF5 0xFE 0xE4 0xF5 0xF2 0x75 0x8E 0xFC 0xF5 0xEC 0xF5 0xEB 0x75 0xEE 0xC6 0x75 0xED 0x0B 0x75 0xE4 0x01 0x75 0xE3 0x81 0x75 0xDF 0x10 0xF5 0xD7 0xD2 0xC5 0x43 0xD8 0x20 0x16
write to 0x36 ack data: 0x3D 0x40 
read to 0x36 ack data: 0x04 0x43 0xD9 0x10 0x22 0x75 0x98 0x00 0x75 0xA0 0x00 0xC0 0x89 0x75 0x89 0x00 0xD2 0xC5 0x8F 0x99 0x43 0x99 0x08 0xC2 0xC6 0x00 0x00 0xD2 0xF9 0x00 0x00 0xC2 0xF9 0x00 0x00 0xC2 0xC5 0x7F 0x00 0x75 0x99 0x00 0x85 0x0F 0x0D 0xE5 0xA0 0x54 0x08 0x60 0x02 0x7F 0x01 0xD0 0xE0 0x64 0x02 0x70 0x0D 0xD2 0xC5 0x00 0x00 0x00 0x74 0x65
write to 0x36 ack data: 0x3D 0x80 
read to 0x36 ack data: 0x00 0x00 0xD2 0xC6 0x00 0x75 0x89 0x02 0x22 0x7F 0x00 0x22 0x74 0x1C 0xD5 0xE0 0xFD 0x22 0xC0 0x07 0x12 0x3D 0x89 0xE5 0x07 0xD0 0x07 0x43 0x8D 0x80 0xB4 0x01 0x0A 0x53 0xF2 0x7F 0x43 0xF6 0x02 0xD2 0xDE 0x80 0x12 0xB4 0x02 0x07 0x43 0xF2 0x80 0xD2 0xDE 0x80 0x08 0x53 0xF2 0x7F 0x53 0xF6 0xFD 0xD2 0xDE 0x53 0x8D 0x7F 0x93 0xAA
write to 0x36 ack data: 0x3D 0xC0 
read to 0x36 ack data: 0x53 0xC8 0x8C 0x43 0xC8 0x02 0xD2 0xED 0x12 0x3D 0x8C 0x22 0xC0 0x89 0x75 0x89 0x00 0x00 0xC2 0xC6 0xC2 0xC5 0x8F 0xA4 0x8E 0xA5 0xD2 0xE8 0x75 0x98 0x00 0x75 0xA0 0x00 0x43 0x87 0x01 0x00 0x00 0x00 0xE5 0x98 0x54 0x02 0x60 0xEE 0xC2 0xE8 0x75 0x98 0x00 0x75 0xA0 0x00 0xD0 0xE0 0x64 0x02 0x70 0x0D 0xD2 0xC5 0x00 0x00 0xD6 0x56
write to 0x36 ack data: 0x3E 0x00 
read to 0x36 ack data: 0x00 0x00 0x00 0xD2 0xC6 0x00 0x75 0x89 0x02 0x22 0x12 0x33 0x5D 0x22 0xC2 0xC1 0x53 0x80 0x7B 0x53 0xE8 0xFB 0x53 0xE8 0xFE 0xE4 0xF5 0x98 0xF5 0xA0 0xF5 0x9E 0xF5 0x9F 0xF5 0x96 0xF5 0x97 0x43 0xEF 0x40 0xF5 0xE2 0xF5 0xE1 0xF5 0xD9 0xF5 0xEC 0xF5 0xEB 0xF5 0xEE 0xF5 0xED 0xF5 0xE4 0xF5 0xE3 0xF5 0xDF 0xF5 0xD7 0xF5 0xCE 0x39
write to 0x36 ack data: 0x3E 0x40 
read to 0x36 ack data: 0xC0 0xF5 0xD8 0x53 0xEF 0xBF 0x22 0x53 0x89 0xFC 0x75 0x8A 0x00 0xC2 0xC6 0xC2 0xC5 0x22 0x53 0x89 0xFC 0x75 0x8A 0x00 0xC2 0xED 0x22 0xD2 0xC5 0x00 0x00 0x00 0x00 0x00 0xD2 0xC6 0x00 0x75 0x89 0x02 0x75 0x8A 0x00 0x22 0x75 0x89 0x00 0x12 0x3D 0x92 0x75 0x8A 0x02 0x43 0x89 0x03 0x22 0x22 0x22 0x7F 0x31 0x7E 0x00 0x22 0xAE 0x14
write to 0x36 ack data: 0x3E 0x80 
read to 0x36 ack data: 0x90 0x42 0x24 0xE0 0xFC 0xA3 0xE0 0xFD 0xA3 0xE0 0xFE 0xA3 0xE0 0xFF 0x22 0x90 0x42 0xE1 0xE0 0xFE 0x64 0x73 0x70 0x0C 0x90 0x42 0xE0 0xE0 0xFF 0x54 0xF0 0x64 0x60 0x70 0x01 0x22 0x7F 0x60 0x7E 0x73 0x22 0x43 0x8D 0x80 0x53 0xF6 0x03 0x43 0xF6 0xC0 0x75 0xF7 0x0B 0x75 0xF9 0x81 0x75 0xFA 0x48 0x75 0xFB 0x0C 0xE4 0xF5 0x68 0x33
write to 0x36 ack data: 0x3E 0xC0 
read to 0x36 ack data: 0xFC 0x53 0xF2 0x80 0x43 0xF2 0x0C 0x53 0x8D 0x7F 0xF5 0xEB 0xF5 0xEC 0xF5 0xED 0xF5 0xEE 0xF5 0xE3 0xF5 0xE4 0x22 0x90 0x42 0x06 0xE0 0xF5 0xDB 0xA3 0xE0 0xF5 0xDC 0x90 0x42 0x08 0xE0 0xF5 0xDD 0xA3 0xE0 0xF5 0xDE 0x22 0x75 0xDC 0x00 0x75 0xDB 0x00 0x75 0xDE 0x00 0x75 0xDD 0x00 0x22 0xEF 0x60 0x18 0x53 0x91 0xFB 0x43 0x89 0x57
write to 0x36 ack data: 0x3F 0x00 
read to 0x36 ack data: 0xD8 0x80 0x43 0xBF 0x20 0x53 0xBF 0x3F 0x43 0xBF 0x80 0x43 0x87 0x04 0x53 0xD7 0xF0 0x43 0xD7 0x02 0x22 0xEB 0x9F 0xF5 0xF0 0xEA 0x9E 0x42 0xF0 0xE9 0x9D 0x42 0xF0 0xEC 0x64 0x80 0xC8 0x64 0x80 0x98 0x45 0xF0 0x22 0x43 0xED 0x20 0x43 0xBE 0x08 0x53 0xED 0xDF 0x22 0x43 0xED 0x20 0x53 0xBE 0xF7 0x53 0xED 0xDF 0x22 0x12 0xD5 0xE4
write to 0x36 ack data: 0x3F 0x40 
read to 0x36 ack data: 0x3E 0x0E 0x7F 0x01 0x12 0x3E 0xF9 0x12 0x3C 0x0A 0x12 0x3C 0xFF 0x02 0x3E 0x47 0x43 0x8D 0x80 0x75 0xFA 0x50 0xE4 0xF5 0xF2 0x53 0x8D 0x7F 0x22 0xEE 0x30 0xE7 0x07 0xC3 0xE4 0x9F 0xFF 0xE4 0x9E 0xFE 0x22 0x43 0x8D 0x80 0x43 0xF9 0x40 0x53 0x8D 0x7F 0x22 0x85 0x09 0xB1 0x53 0xB2 0xFE 0x22 0x22 0x22 0xFF 0xFF 0xFF 0xFF 0xA6 0x59
write to 0x36 ack data: 0x3F 0x80 
read to 0x36 ack data: 0xFF 0xFF 0xFF 0xFF 0xFF 0xFF 0xFF 0xFF 0xFF 0xFF 0xFF 0xFF 0xFF 0xFF 0xFF 0xFF 0xFF 0xFF 0xFF 0xFF 0xFF 0xFF 0xFF 0xFF 0xFF 0xFF 0xFF 0xFF 0xFF 0xFF 0xFF 0xFF 0xFF 0xFF 0xFF 0xFF 0xFF 0xFF 0xFF 0xFF 0xFF 0xFF 0xFF 0xFF 0xFF 0xFF 0xFF 0xFF 0xFF 0xFF 0xFF 0xFF 0xFF 0xFF 0xFF 0xFF 0xFF 0xFF 0xFF 0xFF 0xFF 0xFF 0xFF 0xFF 0xF1 0x54
write to 0x36 ack data: 0x3F 0xC0 
read to 0x36 ack data: 0xFF 0xFF 0xFF 0xFF 0xFF 0xFF 0xFF 0xFF 0xFF 0xFF 0xFF 0xFF 0xFF 0xFF 0xFF 0xFF 0xFF 0xFF 0xFF 0xFF 0xFF 0xFF 0xFF 0xFF 0xFF 0xFF 0xFF 0xFF 0xFF 0xFF 0xFF 0xFF 0xFF 0xFF 0xFF 0xFF 0xFF 0xFF 0xFF 0xFF 0xFF 0xFF 0xFF 0xFF 0xFF 0xFF 0xFF 0xFF 0xFF 0xFF 0xFF 0xFF 0xFF 0xFF 0xFF 0xFF 0xFF 0xFF 0xFF 0xFF 0xBF 0xFF 0xFF 0xEF 0x8D 0xF9
write to 0x36 ack data: 0x40 0x00 
read to 0x36 ack data: 0x00 0x00 0x00 0x08 0xFF 0xFF 0xFF 0xFF 0xFF 0xFF 0xFF 0xFF 0xFF 0xFF 0xFF 0xFF 0xFF 0xFF 0xFF 0xFF 0xFF 0xFF 0xFF 0xFF 0xFF 0xFF 0xFF 0xFF 0xFF 0xFF 0xFF 0xFF 0xFF 0xFF 0xFF 0xFF 0xFF 0xFF 0xFF 0xFF 0xFF 0xFF 0xFF 0xFF 0xFF 0xFF 0xFF 0xFF 0xFF 0xFF 0xFF 0xFF 0xFF 0xFF 0xFF 0xFF 0xFF 0xFF 0xFF 0xFF 0xFF 0xFF 0xFF 0xFF 0x03 0x97

